(1634075578.424669) vcan0 0D0#00003B00003B0000
(1634075578.424725) vcan0 181#4AC45801
(1634075578.424734) vcan0 4ED#00000017FFA00000
(1634075578.424737) vcan0 201#9006010000000000
(1634075578.424740) vcan0 0C0#022C030000000000
(1634075578.425971) vcan0 202#90FAFF0000000000
(1634075578.426057) vcan0 0D3#006200FE0000FAFA
(1634075578.426061) vcan0 201#9006010000000000
(1634075578.427497) vcan0 0D2#00000400000A4E8B
(1634075578.427588) vcan0 4EC#0062FFF400820000
(1634075578.427592) vcan0 202#90FAFF0000000000
(1634075578.429465) vcan0 0D1#00084E000A4E0101
(1634075578.429601) vcan0 0AA#0506BC0047
(1634075578.429606) vcan0 0AA#013F0B43DAAB4A1C
(1634075578.429610) vcan0 201#9006010000000000
(1634075578.429613) vcan0 0D0#00003B0000000000
(1634075578.429616) vcan0 4ED#00000017FFA00000
(1634075578.429620) vcan0 202#90FAFF0000000000
(1634075578.429623) vcan0 0C0#022BF60000000000
(1634075578.432611) vcan0 201#9006010000000000
(1634075578.432630) vcan0 0D3#006200FE0000FAFA
(1634075578.432833) vcan0 202#90FAFF0000000000
(1634075578.432837) vcan0 4EC#0061FFFE00810000
(1634075578.432844) vcan0 0D2#00000000000A4E8B
(1634075578.432846) vcan0 201#9006010000000000
(1634075578.432849) vcan0 0B0#0103640500000000
(1634075578.434173) vcan0 0D1#00084E000A4E0101
(1634075578.434185) vcan0 4ED#00000017FFA10000
(1634075578.434188) vcan0 202#90FAFF0000000000
(1634075578.434191) vcan0 0D0#00003B0000000000
(1634075578.434194) vcan0 0B0#026401057B010096
(1634075578.434197) vcan0 201#9089010000000000
(1634075578.435925) vcan0 0C0#022C030000000000
(1634075578.435945) vcan0 202#9077FF0000000000
(1634075578.435949) vcan0 0D3#006200FE0000FAFA
(1634075578.435951) vcan0 4EC#006AFFFB008D0000
(1634075578.437102) vcan0 201#9089010000000000
(1634075578.437117) vcan0 0D2#00000000000A4E8B
(1634075578.437120) vcan0 202#9077FF0000000000
(1634075578.441178) vcan0 4ED#00000017FFA10000
(1634075578.441196) vcan0 0D1#00084E000A4E0101
(1634075578.441199) vcan0 0AA#0506BB004B
(1634075578.441202) vcan0 201#9089010000000000
(1634075578.443257) vcan0 0AA#01426637DA764AFD
(1634075578.443281) vcan0 0D0#00003B0000000000
(1634075578.443285) vcan0 202#9077FF0000000000
(1634075578.443289) vcan0 0C0#022BDC0000000000
(1634075578.443293) vcan0 201#9089010000000000
(1634075578.443296) vcan0 0D3#006200FE0000FAFA
(1634075578.443299) vcan0 4EC#0062FFFA00910000
(1634075578.443302) vcan0 202#9077FF0000000000
(1634075578.443305) vcan0 0D2#00000000000A4E8B
(1634075578.443308) vcan0 4ED#00000017FFA10000
(1634075578.443312) vcan0 201#9089010000000000
(1634075578.443315) vcan0 0D1#00084E000A4E0101
(1634075578.443317) vcan0 202#9077FF0000000000
(1634075578.444989) vcan0 0D0#00003B0000000000
(1634075578.445011) vcan0 201#9089010000000000
(1634075578.445014) vcan0 0C0#022C1D0000000000
(1634075578.445017) vcan0 4EC#0069FFF300890000
(1634075578.445019) vcan0 202#9077FF0000000000
(1634075578.448849) vcan0 0D3#006200FE0000FAFA
(1634075578.448868) vcan0 201#9089010000000000
(1634075578.448871) vcan0 4ED#00000017FFA10000
(1634075578.448873) vcan0 0D2#00000000000A4E8B
(1634075578.448876) vcan0 202#9077FF0000000000
(1634075578.448879) vcan0 0D1#00084E000A4E0101
(1634075578.448881) vcan0 201#9089010000000000
(1634075578.448884) vcan0 0D0#00003B0000000000
(1634075578.454617) vcan0 202#9077FF0000000000
(1634075578.454688) vcan0 4EC#005FFFF700870000
(1634075578.454701) vcan0 0C0#022C2A0000000000
(1634075578.454713) vcan0 201#9089010000000000
(1634075578.454724) vcan0 0D3#006200FE0000FAFA
(1634075578.454735) vcan0 4ED#00000017FFA00000
(1634075578.454745) vcan0 202#9077FF0000000000
(1634075578.454756) vcan0 0D2#00000000000A4E8B
(1634075578.454767) vcan0 201#9089010000000000
(1634075578.454777) vcan0 0D1#00084E000A4E0101
(1634075578.454788) vcan0 202#9077FF0000000000
(1634075578.454798) vcan0 0D0#0000000000000000
(1634075578.454809) vcan0 182#A8F3FF06
(1634075578.454819) vcan0 4EC#0068FFF600900000
(1634075578.454833) vcan0 201#9089010000000000
(1634075578.454845) vcan0 0C0#022BCF0000000000
(1634075578.456674) vcan0 4ED#00000017FFA10000
(1634075578.456784) vcan0 202#9077FF0000000000
(1634075578.456788) vcan0 0D3#006200FE0000FAFA
(1634075578.456791) vcan0 182#5FFEFF07
(1634075578.456794) vcan0 201#9089010000000000
(1634075578.456796) vcan0 0D2#00000000000A4E8B
(1634075578.458269) vcan0 202#9077FF0000000000
(1634075578.458293) vcan0 0D1#00084E000A4E0101
(1634075578.458296) vcan0 0B0#0102640500000000
(1634075578.458299) vcan0 0AA#0506BB004B
(1634075578.458302) vcan0 0AA#0142D3839FBB9BE0
(1634075578.458305) vcan0 201#9089010000000000
(1634075578.458307) vcan0 0B0#026401056E0100A4
(1634075578.463317) vcan0 4EC#0065FFFB00990000
(1634075578.463405) vcan0 202#9077FF0000000000
(1634075578.463409) vcan0 0C0#022BDC0000000000
(1634075578.463412) vcan0 4ED#00000016FFA10000
(1634075578.463414) vcan0 201#9006010000000000
(1634075578.463417) vcan0 0D3#006200FE0000FAFA
(1634075578.463420) vcan0 181#A8030006
(1634075578.463422) vcan0 202#90FAFF0000000000
(1634075578.463425) vcan0 0D2#00000000000A4E8B
(1634075578.463428) vcan0 201#9006010000000000
(1634075578.463430) vcan0 0D1#00084E000A4E0101
(1634075578.463433) vcan0 181#5F070007
(1634075578.463436) vcan0 4EC#0065FFFA00880000
(1634075578.463439) vcan0 202#90FAFF0000000000
(1634075578.463441) vcan0 0D0#00003B0000000000
(1634075578.464739) vcan0 4ED#00000016FFA10000
(1634075578.464842) vcan0 201#9006010000000000
(1634075578.464846) vcan0 0C0#022C030000000000
(1634075578.466053) vcan0 202#90FAFF0000000000
(1634075578.466147) vcan0 0D3#006200FE0000FAFA
(1634075578.466151) vcan0 201#9006010000000000
(1634075578.467449) vcan0 0D2#00000000000A4E8B
(1634075578.467460) vcan0 182#4A295601
(1634075578.467464) vcan0 202#90FAFF0000000000
(1634075578.467466) vcan0 4EC#0069FFF5008A0000
(1634075578.467469) vcan0 0D1#00084E000A4E0101
(1634075578.468835) vcan0 201#9006010000000000
(1634075578.468846) vcan0 0D0#00003B0000000000
(1634075578.468848) vcan0 4ED#00000016FFA00000
(1634075578.468851) vcan0 0FF#9700919700000000
(1634075578.470314) vcan0 202#90FAFF0000000000
(1634075578.470412) vcan0 0C0#022BE90000000000
(1634075578.470416) vcan0 201#9006010000000000
(1634075578.470419) vcan0 0D3#006200FE0000FAFA
(1634075578.471720) vcan0 202#90FAFF0000000000
(1634075578.471736) vcan0 0D2#00000000000A4E8B
(1634075578.471739) vcan0 4EC#005EFFF6008C0000
(1634075578.484043) vcan0 201#9006010000000000
(1634075578.484143) vcan0 0D1#00084E000A4E0101
(1634075578.484147) vcan0 4ED#00000016FFA10000
(1634075578.484150) vcan0 202#90FAFF0000000000
(1634075578.484153) vcan0 0D0#00003B0000000100
(1634075578.484156) vcan0 201#9006010000000000
(1634075578.484158) vcan0 0C0#022BCF0000000000
(1634075578.484161) vcan0 202#90FAFF0000000000
(1634075578.484164) vcan0 0D3#006200FE0000FAFA
(1634075578.484167) vcan0 201#9006010000000000
(1634075578.484169) vcan0 4EC#0060000200910000
(1634075578.484172) vcan0 0D2#00000000000A4E8B
(1634075578.484175) vcan0 202#90FAFF0000000000
(1634075578.484178) vcan0 4ED#00000016FFA10000
(1634075578.485371) vcan0 0D1#00084E000A4E0101
(1634075578.485447) vcan0 0AA#0506BA004C
(1634075578.485450) vcan0 0AA#0142E6D99FBD9BE2
(1634075578.485453) vcan0 201#9006010000000000
(1634075578.485456) vcan0 0D0#0000000000000000
(1634075578.493039) vcan0 202#90FAFF0000000000
(1634075578.493136) vcan0 0C0#022C100000000000
(1634075578.493139) vcan0 201#9006010000000000
(1634075578.493142) vcan0 0D3#006200FE0000FAFA
(1634075578.493145) vcan0 4EC#005EFFFD00940000
(1634075578.493148) vcan0 202#90FAFF0000000000
(1634075578.493151) vcan0 0D2#00000000000A4E8B
(1634075578.493153) vcan0 4ED#00000017FFA10000
(1634075578.493156) vcan0 201#9006010000000000
(1634075578.493159) vcan0 0B0#0102640500000000
(1634075578.493162) vcan0 0D1#00084E000A4E0101
(1634075578.493164) vcan0 202#90FAFF0000000000
(1634075578.493167) vcan0 0D0#00003B0000000100
(1634075578.493170) vcan0 0B0#026401056E010089
(1634075578.493172) vcan0 201#9006010000000000
(1634075578.493176) vcan0 0C0#022C100000000000
(1634075578.493179) vcan0 202#90FAFF0000000000
(1634075578.493182) vcan0 4EC#0064FFFC00850000
(1634075578.493184) vcan0 0D3#006200FE0000FAFA
(1634075578.493187) vcan0 201#9006010000000000
(1634075578.493190) vcan0 4ED#00000017FFA10000
(1634075578.493192) vcan0 0D2#00000000000A4E8B
(1634075578.495358) vcan0 202#90FAFF0000000000
(1634075578.495373) vcan0 0D1#00084E000A4E0101
(1634075578.495376) vcan0 201#9006010000000000
(1634075578.495379) vcan0 0D0#00003B0000000100
(1634075578.495414) vcan0 202#90FAFF0000000000
(1634075578.495428) vcan0 0C0#022BF60000000000
(1634075578.495446) vcan0 4EC#0059FFFB008E0000
(1634075578.495450) vcan0 201#9006010000000000
(1634075578.495454) vcan0 0D3#006200FE0000FAFA
(1634075578.495459) vcan0 4ED#00000016FFA10000
(1634075578.495463) vcan0 202#90FAFF0000000000
(1634075578.495467) vcan0 0D2#00000000000A4E8B
(1634075578.495470) vcan0 201#9006010000000000
(1634075578.495475) vcan0 0D1#00084E000A4E0101
(1634075578.495480) vcan0 202#90FAFF0000000000
(1634075578.495490) vcan0 0D0#0000000000000000
(1634075578.495496) vcan0 4EC#0058FFFF008D0000
(1634075578.495500) vcan0 201#9006010000000000
(1634075578.496738) vcan0 0C0#022BE90000000000
(1634075578.496753) vcan0 202#90FAFF0000000000
(1634075578.496756) vcan0 4ED#00000017FFA00000
(1634075578.496759) vcan0 0D3#006200FE0000FAFA
(1634075578.496761) vcan0 201#9006010000000000
(1634075578.496764) vcan0 0D2#00000400000A4E8B
(1634075578.498289) vcan0 202#90FAFF0000000000
(1634075578.498326) vcan0 0D1#00084E000A4E0101
(1634075578.498333) vcan0 201#9006010000000000
(1634075578.500677) vcan0 0D0#00000000003B0000
(1634075578.500693) vcan0 4EC#0054FFFA00880000
(1634075578.500696) vcan0 202#90FAFF0000000000
(1634075578.500699) vcan0 0C0#022BF60000000000
(1634075578.500702) vcan0 4ED#00000016FFA10000
(1634075578.500704) vcan0 201#9006010000000000
(1634075578.500707) vcan0 0D3#006200FE0000FAFA
(1634075578.501871) vcan0 202#90FAFF0000000000
(1634075578.501894) vcan0 0D2#00000400000A4E8B
(1634075578.503850) vcan0 201#9006010000000000
(1634075578.503872) vcan0 0D1#00084E000A4E0101
(1634075578.503875) vcan0 4EC#0053FFF5007F0000
(1634075578.503878) vcan0 202#90FAFF0000000000
(1634075578.503880) vcan0 0D0#00000000003B0000
(1634075578.503883) vcan0 182#A8090006
(1634075578.505058) vcan0 201#9006010000000000
(1634075578.505080) vcan0 4ED#00000016FFA10000
(1634075578.505084) vcan0 0C0#022C1D0000000000
(1634075578.505087) vcan0 202#90FAFF0000000000
(1634075578.506643) vcan0 0D3#006200FE0000FAFA
(1634075578.506657) vcan0 182#EB933502
(1634075578.506661) vcan0 201#9006010000000000
(1634075578.506664) vcan0 0D2#00000400000A4E8B
(1634075578.509099) vcan0 202#90FAFF0000000000
(1634075578.509135) vcan0 0D1#00084E000A4E0101
(1634075578.509138) vcan0 0B0#0102640500000000
(1634075578.509140) vcan0 182#8AEEFF03
(1634075578.509143) vcan0 4EC#0054FFF3007B0000
(1634075578.509146) vcan0 201#9006010000000000
(1634075578.509148) vcan0 0B0#026401056E010096
(1634075578.509150) vcan0 0D0#00000000003B0000
(1634075578.509153) vcan0 4ED#00000017FFA00000
(1634075578.509156) vcan0 202#90FAFF0000000000
(1634075578.510749) vcan0 0C0#022BF60000000000
(1634075578.510772) vcan0 182#F6000004
(1634075578.510776) vcan0 201#9006010000000000
(1634075578.510778) vcan0 0D3#006200FE0000FAFA
(1634075578.510781) vcan0 181#A8000006
(1634075578.513485) vcan0 202#90FAFF0000000000
(1634075578.513504) vcan0 0D2#00000400000A4E8B
(1634075578.513507) vcan0 182#A0000005
(1634075578.513509) vcan0 181#EBBC3502
(1634075578.513512) vcan0 4EC#0064FFF6007C0000
(1634075578.513515) vcan0 201#9006010000000000
(1634075578.513518) vcan0 0D1#00084E000A4E0101
(1634075578.513520) vcan0 202#90FAFF0000000000
(1634075578.513523) vcan0 4ED#00000017FFA10000
(1634075578.515392) vcan0 0D0#00003B00003B0000
(1634075578.515412) vcan0 181#8A0B0003
(1634075578.515417) vcan0 201#9006010000000000
(1634075578.515421) vcan0 0C0#022BCF0000000000
(1634075578.515425) vcan0 202#90FAFF0000000000
(1634075578.515429) vcan0 181#F6000004
(1634075578.515433) vcan0 0D3#006200FE0000FAFA
(1634075578.516837) vcan0 201#9006010000000000
(1634075578.516855) vcan0 0D2#00000400000A4E8B
(1634075578.516858) vcan0 4EC#005AFFF000830000
(1634075578.518717) vcan0 202#90FAFF0000000000
(1634075578.518735) vcan0 0D1#00084E000A4E0101
(1634075578.518737) vcan0 181#A0F50005
(1634075578.518740) vcan0 4ED#00000016FFA10000
(1634075578.518743) vcan0 201#9006010000000000
(1634075578.518746) vcan0 0AA#0A07A8083306A0
(1634075578.518748) vcan0 0D0#00003B00003B0000
(1634075578.521320) vcan0 202#90FAFF0000000000
(1634075578.521338) vcan0 0C0#022BE90000000000
(1634075578.521342) vcan0 201#9006010000000000
(1634075578.521344) vcan0 0D3#006200FE0000FAFA
(1634075578.521347) vcan0 4EC#004DFFF100860000
(1634075578.521350) vcan0 202#90FAFF0000000000
(1634075578.522424) vcan0 0D2#00000000000A4E8B
(1634075578.522437) vcan0 4ED#00000017FFA10000
(1634075578.522440) vcan0 201#9006010000000000
(1634075578.522443) vcan0 0D1#00084E000A4E0101
(1634075578.524350) vcan0 202#90FAFF0000000000
(1634075578.524378) vcan0 181#4AC05801
(1634075578.524383) vcan0 0D0#00003B0000000000
(1634075578.524386) vcan0 201#9006010000000000
(1634075578.524389) vcan0 0C0#022BF60000000000
(1634075578.525744) vcan0 202#90FAFF0000000000
(1634075578.525795) vcan0 4EC#0052FFFB00870000
(1634075578.525799) vcan0 0D3#006200FE0000FAFA
(1634075578.527422) vcan0 201#9006010000000000
(1634075578.527447) vcan0 0D2#00000000000A4E8B
(1634075578.527451) vcan0 4ED#00000017FFA10000
(1634075578.527454) vcan0 202#90FAFF0000000000
(1634075578.527457) vcan0 0D1#00084E000A4E0101
(1634075578.529274) vcan0 0AA#0506BB0048
(1634075578.529296) vcan0 0AA#013F9619DAAC49E4
(1634075578.529299) vcan0 201#9006010000000000
(1634075578.529302) vcan0 0D0#0000770000000000
(1634075578.529305) vcan0 202#90FAFF0000000000
(1634075578.530440) vcan0 0C0#022C030000000000
(1634075578.530463) vcan0 4EC#0058FFFE00800000
(1634075578.532321) vcan0 201#9006010000000000
(1634075578.532343) vcan0 0D3#006200FE0000FAFA
(1634075578.532346) vcan0 4ED#00000016FFA00000
(1634075578.532349) vcan0 202#90FAFF0000000000
(1634075578.532352) vcan0 0D2#00000000000A4E8B
(1634075578.532354) vcan0 201#9006010000000000
(1634075578.534524) vcan0 0B0#0102640500000000
(1634075578.534548) vcan0 0D1#00084E000A4E0101
(1634075578.534552) vcan0 202#90FAFF0000000000
(1634075578.534555) vcan0 0D0#0000770000000000
(1634075578.534557) vcan0 0B0#026401057B010089
(1634075578.535828) vcan0 201#9006010000000000
(1634075578.535847) vcan0 0C0#022C6B0000000000
(1634075578.535851) vcan0 4EC#0058FFF600850000
(1634075578.535853) vcan0 202#90FAFF0000000000
(1634075578.537121) vcan0 0D3#006200FE0000FAFA
(1634075578.537134) vcan0 4ED#00000016FFA10000
(1634075578.537138) vcan0 201#9006010000000000
(1634075578.537141) vcan0 0D2#00000000000A4E8B
(1634075578.539155) vcan0 202#90FAFF0000000000
(1634075578.539181) vcan0 0D1#00084E000A4E0101
(1634075578.539185) vcan0 0AA#0506BA004B
(1634075578.539188) vcan0 201#9006010000000000
(1634075578.539191) vcan0 0AA#01421A19DAAB4A4F
(1634075578.539195) vcan0 0D0#0000770000000000
(1634075578.539197) vcan0 4EC#005AFFF800830000
(1634075578.539201) vcan0 202#90FAFF0000000000
(1634075578.541059) vcan0 0C0#022BE90000000000
(1634075578.541079) vcan0 4ED#00000016FFA10000
(1634075578.541082) vcan0 201#9006010000000000
(1634075578.541085) vcan0 0D3#006200FE0000FAFA
(1634075578.541088) vcan0 202#90FAFF0000000000
(1634075578.543018) vcan0 0D2#00000401000A4E8B
(1634075578.543067) vcan0 201#9006010000000000
(1634075578.543080) vcan0 0D1#00084E000A4E0101
(1634075578.543090) vcan0 202#90FAFF0000000000
(1634075578.545111) vcan0 4EC#005EFFFE008A0000
(1634075578.545162) vcan0 0D0#0000B300003B0001
(1634075578.545176) vcan0 201#9006010000000000
(1634075578.545187) vcan0 0C0#022C2A0000000000
(1634075578.545198) vcan0 4ED#00000017FFA10000
(1634075578.545208) vcan0 202#90FAFF0000000000
(1634075578.547016) vcan0 0D3#006200FE0000FAFA
(1634075578.547064) vcan0 201#9006010000000000
(1634075578.547078) vcan0 0D2#00000400000A4E8B
(1634075578.547088) vcan0 202#90FAFF0000000000
(1634075578.548877) vcan0 0D1#00084E000A4E0101
(1634075578.548928) vcan0 202#3DD8
(1634075578.548941) vcan0 4EC#00640000008F0000
(1634075578.548951) vcan0 201#9006010000000000
(1634075578.548961) vcan0 0D0#00007700003B0000
(1634075578.548970) vcan0 4ED#00000017FFA10000
(1634075578.548979) vcan0 202#90FAFF0000000000
(1634075578.550710) vcan0 0C0#022BC20000000000
(1634075578.550757) vcan0 201#9006010000000000
(1634075578.550770) vcan0 0D3#006200FE0000FAFA
(1634075578.551962) vcan0 202#90FAFF0000000000
(1634075578.551992) vcan0 0D2#00000400000A4E8B
(1634075578.552003) vcan0 201#9006010000000000
(1634075578.553696) vcan0 4EC#0064FFFF00900000
(1634075578.553747) vcan0 0D1#00084E000A4E0101
(1634075578.553761) vcan0 202#90FAFF0000000000
(1634075578.553771) vcan0 0D0#00007700003B0000
(1634075578.553781) vcan0 182#A8FFFF06
(1634075578.553790) vcan0 4ED#00000016FFA00000
(1634075578.556066) vcan0 201#9006010000000000
(1634075578.556322) vcan0 0C0#022BF60000000000
(1634075578.556353) vcan0 202#90FAFF0000000000
(1634075578.556373) vcan0 0D3#006200FE0000FAFA
(1634075578.556384) vcan0 182#5FFFFF07
(1634075578.556394) vcan0 201#9006010000000000
(1634075578.556403) vcan0 0D2#00000400000A4E8B
(1634075578.557600) vcan0 4EC#0063FFEE00850000
(1634075578.557651) vcan0 202#90FAFF0000000000
(1634075578.557664) vcan0 0AA#0506BB004B
(1634075578.557674) vcan0 0AA#01422A7C9FB94A55
(1634075578.559610) vcan0 4ED#00000017FFA00000
(1634075578.559660) vcan0 201#9006010000000000
(1634075578.559673) vcan0 0B0#026401057B0100A4
(1634075578.559683) vcan0 0D0#0000770000770000
(1634075578.559693) vcan0 202#90FAFF0000000000
(1634075578.559703) vcan0 0C0#022BDC0000000000
(1634075578.561564) vcan0 201#9006010000000000
(1634075578.561615) vcan0 181#A8000006
(1634075578.561629) vcan0 0D3#006200FE0000FAFA
(1634075578.561640) vcan0 202#90FAFF0000000000
(1634075578.561650) vcan0 4EC#006AFFF7008C0000
(1634075578.561660) vcan0 0D2#00000800000A4E8B
(1634075578.563592) vcan0 201#9006010000000000
(1634075578.563653) vcan0 181#5F060007
(1634075578.563672) vcan0 4ED#00000017FFA00000
(1634075578.563687) vcan0 0D1#00084E000A4E0101
(1634075578.563700) vcan0 202#90FAFF0000000000
(1634075578.563715) vcan0 0D0#0000770000770000
(1634075578.565524) vcan0 201#9006010000000000
(1634075578.565577) vcan0 0C0#022BDC0000000000
(1634075578.565591) vcan0 202#90FAFF0000000000
(1634075578.565602) vcan0 0D3#006200FE0000FAFA
(1634075578.565613) vcan0 4EC#0059FFF6008C0000
(1634075578.567501) vcan0 201#9006010000000000
(1634075578.567559) vcan0 0D2#00000800000A4E8B
(1634075578.567580) vcan0 182#4A275601
(1634075578.567594) vcan0 4ED#00000017FFA00000
(1634075578.567616) vcan0 202#90FAFF0000000000
(1634075578.567635) vcan0 0D1#00084E000A4E0101
(1634075578.569292) vcan0 201#9006010000000000
(1634075578.569337) vcan0 0D0#00003B0000770000
(1634075578.569350) vcan0 202#90FAFF0000000000
(1634075578.569360) vcan0 0C0#022C100000000000
(1634075578.571545) vcan0 4EC#005AFFF500870000
(1634075578.571623) vcan0 201#9006010000000000
(1634075578.571658) vcan0 0D3#006200FE0000FAFA
(1634075578.571687) vcan0 202#90FAFF0000000000
(1634075578.571723) vcan0 4ED#00000017FFA00000
(1634075578.571754) vcan0 0D2#00000C00000A4E8B
(1634075578.573164) vcan0 201#9006010000000000
(1634075578.573209) vcan0 0D1#00084E000A4E0101
(1634075578.573222) vcan0 202#90FAFF0000000000
(1634075578.575722) vcan0 0D0#00003B0000B30000
(1634075578.575818) vcan0 201#9006010000000000
(1634075578.575841) vcan0 0C0#022C030000000000
(1634075578.575852) vcan0 4EC#004AFFFB008B0000
(1634075578.575863) vcan0 202#90FAFF0000000000
(1634075578.575873) vcan0 0D3#006200FE0000FAFA
(1634075578.575883) vcan0 4ED#00000017FFA00000
(1634075578.577042) vcan0 201#9006010000000000
(1634075578.577084) vcan0 0D2#00000C00000A4E8B
(1634075578.577097) vcan0 202#90FAFF0000000000
(1634075578.579102) vcan0 0D1#00084E000A4E0101
(1634075578.579175) vcan0 0AA#0142DD419FBD9BE2
(1634075578.579193) vcan0 0AA#0506BA004B
(1634075578.579207) vcan0 201#9006010000000000
(1634075578.579222) vcan0 0D0#00003B0000770000
(1634075578.579237) vcan0 4EC#0055FFF800950000
(1634075578.579251) vcan0 202#90FAFF0000000000
(1634075578.581035) vcan0 0C0#022C030000000000
(1634075578.581087) vcan0 201#9006010000000000
(1634075578.581100) vcan0 4ED#00000017FFA10000
(1634075578.581112) vcan0 0D3#006200FE0000FAFA
(1634075578.581123) vcan0 202#90FAFF0000000000
(1634075578.583182) vcan0 0D2#00000800000A4E8B
(1634075578.583242) vcan0 201#9006010000000000
(1634075578.583263) vcan0 0B0#0102640500000000
(1634075578.583276) vcan0 0D1#00084E000A4E0101
(1634075578.583487) vcan0 202#90FAFF0000000000
(1634075578.583520) vcan0 0D0#0000000000B30000
(1634075578.583608) vcan0 0B0#026401057B0100A4
(1634075578.583628) vcan0 4EC#0061FFFF00920000
(1634075578.585516) vcan0 201#9006010000000000
(1634075578.585570) vcan0 0C0#022BF60000000000
(1634075578.585589) vcan0 4ED#00000017FFA00000
(1634075578.585606) vcan0 202#90FAFF0000000000
(1634075578.585623) vcan0 0D3#006200FE0000FAFA
(1634075578.586842) vcan0 201#9006010000000000
(1634075578.586893) vcan0 0D2#00000800000A4E8B
(1634075578.588826) vcan0 202#90FAFF0000000000
(1634075578.588884) vcan0 0D1#00084E000A4E0101
(1634075578.588899) vcan0 4EC#0053000000880000
(1634075578.588910) vcan0 201#9006010000000000
(1634075578.588921) vcan0 0D0#0000000000770000
(1634075578.591179) vcan0 202#90FAFF0000000000
(1634075578.591231) vcan0 4ED#00000017FFA10000
(1634075578.591244) vcan0 0C0#022BF60000000000
(1634075578.591254) vcan0 201#9006010000000000
(1634075578.591264) vcan0 0D3#006200FE0000FAFA
(1634075578.591274) vcan0 202#90FAFF0000000000
(1634075578.591284) vcan0 0D2#00000800000A4E8B
(1634075578.592531) vcan0 201#9006010000000000
(1634075578.592573) vcan0 0D1#00084E000A4E0101
(1634075578.592586) vcan0 4EC#00540000008C0000
(1634075578.593861) vcan0 202#90FAFF0000000000
(1634075578.593913) vcan0 0D0#0000000000770000
(1634075578.593927) vcan0 4ED#00000017FFA20000
(1634075578.595774) vcan0 201#9006010000000000
(1634075578.595832) vcan0 0C0#022BB50000000000
(1634075578.595852) vcan0 202#90FAFF0000000000
(1634075578.595867) vcan0 0D3#006200FE0000FAFA
(1634075578.597635) vcan0 201#9006010000000000
(1634075578.597686) vcan0 0D2#00000800000A4E8B
(1634075578.597699) vcan0 4EC#00690001008F0000
(1634075578.597709) vcan0 202#90FAFF0000000000
(1634075578.597719) vcan0 0D1#00084E000A4E0101
(1634075578.599827) vcan0 201#9006010000000000
(1634075578.599922) vcan0 4ED#FFFF0017FFA10000
(1634075578.599973) vcan0 0D0#0000000000770000
(1634075578.600021) vcan0 202#90FAFF0000000000
(1634075578.600062) vcan0 0C0#022C1D0000000000
(1634075578.600112) vcan0 201#9006010000000000
(1634075578.601193) vcan0 0D3#006200FE0000FAFA
(1634075578.601426) vcan0 202#90FAFF0000000000
(1634075578.601430) vcan0 4EC#006CFFFA00850000
(1634075578.602739) vcan0 0D2#00000800000A4E8B
(1634075578.603155) vcan0 201#9006010000000000
(1634075578.603223) vcan0 0D1#00084E000A4E0101
(1634075578.603227) vcan0 4ED#00000017FFA10000
(1634075578.603230) vcan0 202#90FAFF0000000000
(1634075578.605455) vcan0 0D0#0000000000770000
(1634075578.605660) vcan0 182#A8000006
(1634075578.605669) vcan0 201#9006010000000000
(1634075578.605674) vcan0 0C0#022BB50000000000
(1634075578.605679) vcan0 202#90FAFF0000000000
(1634075578.605683) vcan0 0D3#006200FE0000FAFA
(1634075578.605689) vcan0 182#EBA33502
(1634075578.607349) vcan0 4EC#0069FFFC00910000
(1634075578.607485) vcan0 201#9006010000000000
(1634075578.607491) vcan0 0D2#00000800000A4E8B
(1634075578.607494) vcan0 4ED#00000017FFA20000
(1634075578.607497) vcan0 202#90FAFF0000000000
(1634075578.607500) vcan0 0D1#00084E000A4E0101
(1634075578.609159) vcan0 0B0#0102640500000000
(1634075578.609285) vcan0 182#8AFDFF03
(1634075578.609291) vcan0 201#9006010000000000
(1634075578.610355) vcan0 0B0#026402051E0100A4
(1634075578.610399) vcan0 0D0#0000000000770000
(1634075578.610411) vcan0 202#90FAFF0000000000
(1634075578.610421) vcan0 0C0#022C440000000000
(1634075578.610430) vcan0 182#F6000004
(1634075578.610440) vcan0 201#9006010000000000
(1634075578.612315) vcan0 4EC#0068FFF8008E0000
(1634075578.612379) vcan0 181#A8010006
(1634075578.612393) vcan0 0D3#006200FE0000FAFA
(1634075578.612404) vcan0 202#90FAFF0000000000
(1634075578.612415) vcan0 181#EB513602
(1634075578.612425) vcan0 0D2#00000400000A4E8B
(1634075578.612436) vcan0 182#A0000005
(1634075578.612446) vcan0 4ED#00000017FFA20000
(1634075578.612456) vcan0 201#9006010000000000
(1634075578.612466) vcan0 0D1#00084E000A4E0101
(1634075578.614248) vcan0 202#90FAFF0000000000
(1634075578.614299) vcan0 181#8A0E0003
(1634075578.614313) vcan0 0D0#00000000003B0000
(1634075578.616270) vcan0 201#9006010000000000
(1634075578.616352) vcan0 0C0#022C100000000000
(1634075578.616461) vcan0 4EC#0062FFF200880000
(1634075578.616496) vcan0 202#90FAFF0000000000
(1634075578.616520) vcan0 181#F6000004
(1634075578.616542) vcan0 0D3#006200FE0000FAFA
(1634075578.616567) vcan0 4ED#00000017FFA20000
(1634075578.616599) vcan0 201#9006010000000000
(1634075578.616632) vcan0 0D2#00000400000A4E8B
(1634075578.618028) vcan0 202#90FAFF0000000000
(1634075578.618066) vcan0 181#A0F50005
(1634075578.618079) vcan0 0D1#00084E000A4E0101
(1634075578.618090) vcan0 0AA#0A07A8083306A0
(1634075578.619261) vcan0 201#9006010000000000
(1634075578.619274) vcan0 0D0#00000000003B0000
(1634075578.619283) vcan0 202#90FAFF0000000000
(1634075578.620726) vcan0 4EC#005FFFF900810000
(1634075578.620827) vcan0 0C0#022C1D0000000000
(1634075578.620831) vcan0 201#9006010000000000
(1634075578.620834) vcan0 0D3#006200FE0000FAFA
(1634075578.620836) vcan0 4ED#00000017FFA20000
(1634075578.620839) vcan0 0FF#9700929900000000
(1634075578.624086) vcan0 202#90FAFF0000000000
(1634075578.624266) vcan0 0D2#00000400000A4E8B
(1634075578.624273) vcan0 201#9006010000000000
(1634075578.624276) vcan0 0D1#00084E000A4E0101
(1634075578.624279) vcan0 202#90FAFF0000000000
(1634075578.624282) vcan0 181#4AC95801
(1634075578.624285) vcan0 0D0#0000000000000000
(1634075578.624288) vcan0 4EC#005EFFF3007D0000
(1634075578.624291) vcan0 201#9006010000000000
(1634075578.624295) vcan0 0C0#022BC20000000000
(1634075578.625590) vcan0 4ED#00000017FFA20000
(1634075578.625722) vcan0 202#90FAFF0000000000
(1634075578.625727) vcan0 0D3#006200FE0000FAFA
(1634075578.627296) vcan0 201#9006010000000000
(1634075578.627316) vcan0 0D2#00000000000A4E8B
(1634075578.627320) vcan0 202#90FAFF0000000000
(1634075578.627323) vcan0 0D1#00084E000A4E0101
(1634075578.628701) vcan0 0AA#0506BA004A
(1634075578.628853) vcan0 0AA#0141B038DAAC4A26
(1634075578.628859) vcan0 201#9006010000000000
(1634075578.628862) vcan0 4EC#0053FFF900840000
(1634075578.628865) vcan0 0D0#0000000000000000
(1634075578.630663) vcan0 202#90FAFF0000000000
(1634075578.630822) vcan0 0C0#022BF60000000000
(1634075578.630827) vcan0 4ED#00000017FFA20000
(1634075578.630830) vcan0 201#9006010000000000
(1634075578.630833) vcan0 0D3#006200FE0000FAFA
(1634075578.632649) vcan0 202#90FAFF0000000000
(1634075578.632811) vcan0 0D2#00000000000A4E8B
(1634075578.632816) vcan0 201#9006010000000000
(1634075578.632819) vcan0 0B0#0102630500000000
(1634075578.632822) vcan0 0D1#00084E000A4E0101
(1634075578.632825) vcan0 4EC#005DFFF400850000
(1634075578.634116) vcan0 202#90FAFF0000000000
(1634075578.634221) vcan0 0D0#0000000000000000
(1634075578.634224) vcan0 0B0#0264010560010089
(1634075578.634227) vcan0 4ED#00000017FFA20000
(1634075578.634274) vcan0 201#9006010000000000
(1634075578.635832) vcan0 0C0#022BF60000000000
(1634075578.635848) vcan0 202#90FAFF0000000000
(1634075578.635852) vcan0 0D3#006200FE0000FAFA
(1634075578.636994) vcan0 201#9006010000000000
(1634075578.637095) vcan0 0D2#00000000000A4E8B
(1634075578.637099) vcan0 202#90FAFF0000000000
(1634075578.637102) vcan0 4EC#006AFFF800820000
(1634075578.638180) vcan0 0D1#00084E000A4E0101
(1634075578.638265) vcan0 0AA#0506BA004B
(1634075578.638269) vcan0 0AA#0142DCA69FBB9BE4
(1634075578.638272) vcan0 201#9006010000000000
(1634075578.638274) vcan0 4ED#00000017FFA20000
(1634075578.639421) vcan0 0D0#0000000000000000
(1634075578.639555) vcan0 202#90FAFF0000000000
(1634075578.639560) vcan0 0C0#022BF60000000000
(1634075578.641371) vcan0 201#9006010000000000
(1634075578.641497) vcan0 0D3#006200FE0000FAFA
(1634075578.641504) vcan0 202#90FAFF0000000000
(1634075578.641507) vcan0 0D2#00000000000A4E8B
(1634075578.641510) vcan0 4EC#0062FFF8007F0000
(1634075578.643362) vcan0 201#9006010000000000
(1634075578.643503) vcan0 0D1#00084E000A4E0101
(1634075578.645279) vcan0 4ED#00000017FFA10000
(1634075578.645484) vcan0 202#90FAFF0000000000
(1634075578.645494) vcan0 0D0#0000000000000000
(1634075578.645500) vcan0 201#9006010000000000
(1634075578.645505) vcan0 0C0#022C030000000000
(1634075578.645513) vcan0 202#90FAFF0000000000
(1634075578.645519) vcan0 0D3#006200FE0000FAFA
(1634075578.647275) vcan0 4EC#006AFFF900850000
(1634075578.647421) vcan0 201#9006010000000000
(1634075578.647428) vcan0 0D2#00000000000A4E8B
(1634075578.647430) vcan0 202#90FAFF0000000000
(1634075578.647434) vcan0 4ED#00000017FFA10000
(1634075578.647437) vcan0 0D1#00084E000A4E0101
(1634075578.648718) vcan0 201#9006010000000000
(1634075578.648812) vcan0 0D0#00003B0000000000
(1634075578.649920) vcan0 202#90FAFF0000000000
(1634075578.650001) vcan0 0C0#022C030000000000
(1634075578.650005) vcan0 201#9006010000000000
(1634075578.651429) vcan0 0D3#006200FE0000FAFA
(1634075578.651519) vcan0 4EC#0064FFFD00900000
(1634075578.651523) vcan0 202#90FAFF0000000000
(1634075578.651525) vcan0 0D2#00000000000A4E8B
(1634075578.653108) vcan0 4ED#00000017FFA10000
(1634075578.653258) vcan0 201#9006010000000000
(1634075578.653265) vcan0 0D1#00084E000A4E0101
(1634075578.653268) vcan0 202#90FAFF0000000000
(1634075578.653271) vcan0 0D0#00003B0000000000
(1634075578.654895) vcan0 182#A8FFFF06
(1634075578.655009) vcan0 201#9006010000000000
(1634075578.655013) vcan0 0C0#022BDC0000000000
(1634075578.655016) vcan0 4EC#0064FFF800900000
(1634075578.655301) vcan0 202#90FAFF0000000000
(1634075578.655306) vcan0 0D3#006200FE0000FAFA
(1634075578.656995) vcan0 182#5F000007
(1634075578.657136) vcan0 201#9006010000000000
(1634075578.657142) vcan0 4ED#00000017FFA10000
(1634075578.657145) vcan0 0D2#00000000000A4E8B
(1634075578.657149) vcan0 202#90FAFF0000000000
(1634075578.658976) vcan0 0D1#00084E000A4E0101
(1634075578.659103) vcan0 0B0#0102640500000000
(1634075578.659504) vcan0 0AA#0506BB004C
(1634075578.659515) vcan0 0AA#0142DDA69FBE9BE4
(1634075578.659519) vcan0 201#9006010000000000
(1634075578.659522) vcan0 0B0#026401057B0100A4
(1634075578.659525) vcan0 0D0#00003B0000000000
(1634075578.659528) vcan0 202#90FAFF0000000000
(1634075578.659532) vcan0 0C0#022C100000000000
(1634075578.659535) vcan0 4EC#005EFFFE00970000
(1634075578.660867) vcan0 201#9006010000000000
(1634075578.661007) vcan0 181#A8000006
(1634075578.661013) vcan0 0D3#006200FE0000FAFA
(1634075578.661017) vcan0 4ED#00000018FFA00000
(1634075578.661020) vcan0 202#90FAFF0000000000
(1634075578.662874) vcan0 0D2#00000000000A4E8B
(1634075578.663001) vcan0 201#9006010000000000
(1634075578.663357) vcan0 181#5F060007
(1634075578.663511) vcan0 0D1#00084E000A4E0101
(1634075578.663518) vcan0 202#90FAFF0000000000
(1634075578.663521) vcan0 0D0#00000000003B0001
(1634075578.664958) vcan0 4EC#0059FFF900920000
(1634075578.665093) vcan0 201#9006010000000000
(1634075578.665099) vcan0 0C0#022C1D0000000000
(1634075578.665102) vcan0 202#90FAFF0000000000
(1634075578.665106) vcan0 4ED#00000017FFA00000
(1634075578.666783) vcan0 0D3#006200FE0000FAFA
(1634075578.666799) vcan0 201#9006010000000000
(1634075578.666802) vcan0 182#4A295601
(1634075578.666805) vcan0 0D2#00000401000A4E8B
(1634075578.668269) vcan0 202#90FAFF0000000000
(1634075578.668354) vcan0 0D1#00084E000A4E0101
(1634075578.668358) vcan0 201#9006010000000000
(1634075578.668360) vcan0 0D0#00000000003B0001
(1634075578.669765) vcan0 4EC#0061FFFB008E0000
(1634075578.669948) vcan0 202#90FAFF0000000000
(1634075578.669955) vcan0 0C0#022C440000000000
(1634075578.669959) vcan0 4ED#00000018FFA00000
(1634075578.671653) vcan0 201#9006010000000000
(1634075578.671787) vcan0 0D3#006200FE0000FAFA
(1634075578.671793) vcan0 202#90FAFF0000000000
(1634075578.671796) vcan0 0D2#00000401000A4E8B
(1634075578.673611) vcan0 201#9006010000000000
(1634075578.673739) vcan0 0D1#00084E000A4E0101
(1634075578.673745) vcan0 4EC#0067FFF8008B0000
(1634075578.673749) vcan0 202#90FAFF0000000000
(1634075578.673752) vcan0 0D0#00000000003B0001
(1634075578.675599) vcan0 4ED#00000017FFA00000
(1634075578.675764) vcan0 201#9006010000000000
(1634075578.675773) vcan0 0C0#022BDC0000000000
(1634075578.675779) vcan0 202#90FAFF0000000000
(1634075578.675784) vcan0 0D3#006200FE0000FAFA
(1634075578.678872) vcan0 201#9006010000000000
(1634075578.678964) vcan0 0D2#00000401000A4E8B
(1634075578.678968) vcan0 202#90FAFF0000000000
(1634075578.678971) vcan0 4EC#006CFFFB008A0000
(1634075578.678974) vcan0 0AA#0142D5089FC49BE2
(1634075578.679200) vcan0 0AA#0506BA004B
(1634075578.679273) vcan0 201#9006010000000000
(1634075578.679277) vcan0 0D0#00000000003B0001
(1634075578.679279) vcan0 4ED#00000018FFA00000
(1634075578.679282) vcan0 202#90FAFF0000000000
(1634075578.679285) vcan0 0C0#022BCF0000000000
(1634075578.680584) vcan0 201#9006010000000000
(1634075578.680665) vcan0 0D3#006200FE0000FAFA
(1634075578.682366) vcan0 202#90FAFF0000000000
(1634075578.682500) vcan0 0D2#00000401000A4E8B
(1634075578.682746) vcan0 4EC#006A000200910000
(1634075578.682752) vcan0 201#9006010000000000
(1634075578.682755) vcan0 0B0#0102640500000000
(1634075578.682758) vcan0 0D1#00084E000A4E0101
(1634075578.684518) vcan0 4ED#00000017FFA10000
(1634075578.684615) vcan0 202#90FAFF0000000000
(1634075578.684619) vcan0 0D0#00003B00003B0101
(1634075578.684622) vcan0 0B0#026401057B0100B2
(1634075578.684630) vcan0 201#9006010000000000
(1634075578.684633) vcan0 0C0#022C370000000000
(1634075578.686196) vcan0 202#90FAFF0000000000
(1634075578.686373) vcan0 0D3#006200FE0000FAFA
(1634075578.686379) vcan0 201#9006010000000000
(1634075578.686383) vcan0 4EC#0068FFFF00880000
(1634075578.687660) vcan0 0D2#00000401000A4E8B
(1634075578.687769) vcan0 202#90FAFF0000000000
(1634075578.687774) vcan0 0D1#00084E000A4E0101
(1634075578.687777) vcan0 4ED#00000017FFA10000
(1634075578.689237) vcan0 201#9006010000000000
(1634075578.689364) vcan0 0D0#00003B0000000100
(1634075578.689370) vcan0 202#90FAFF0000000000
(1634075578.689373) vcan0 0C0#022C100000000000
(1634075578.691449) vcan0 201#9006010000000000
(1634075578.691580) vcan0 0D3#006200FE0000FAFA
(1634075578.691587) vcan0 4EC#0064FFFB008B0000
(1634075578.691591) vcan0 202#90FAFF0000000000
(1634075578.691596) vcan0 0D2#00000401000A4E8B
(1634075578.693114) vcan0 4ED#00000017FFA10000
(1634075578.693246) vcan0 201#9006010000000000
(1634075578.693252) vcan0 0D1#00084E000A4E0101
(1634075578.693255) vcan0 202#90FAFF0000000000
(1634075578.694972) vcan0 0D0#00003B00003B0101
(1634075578.695101) vcan0 201#9006010000000000
(1634075578.695108) vcan0 0C0#022BF60000000000
(1634075578.695111) vcan0 202#90FAFF0000000000
(1634075578.697193) vcan0 4EC#0066FFFE00910000
(1634075578.697356) vcan0 0D3#006200FE0000FAFA
(1634075578.697363) vcan0 201#9006010000000000
(1634075578.697366) vcan0 0D2#00000801000A4E8B
(1634075578.697370) vcan0 4ED#00000017FFA10000
(1634075578.697373) vcan0 202#90FAFF0000000000
(1634075578.697376) vcan0 0D1#00084E000A4E0101
(1634075578.698962) vcan0 201#9006010000000000
(1634075578.699094) vcan0 0D0#0000770000770101
(1634075578.699957) vcan0 202#90FAFF0000000000
(1634075578.700050) vcan0 0C0#022BF60000000000
(1634075578.700054) vcan0 4EC#0065000000910000
(1634075578.700056) vcan0 201#9006010000000000
(1634075578.701583) vcan0 0D3#006200FE0000FAFA
(1634075578.701683) vcan0 4ED#00000017FFA20000
(1634075578.701687) vcan0 202#90FAFF0000000000
(1634075578.701689) vcan0 0D2#00000801000A4E8B
(1634075578.703383) vcan0 201#9006010000000000
(1634075578.703499) vcan0 0D1#00084E000A4E0101
(1634075578.703503) vcan0 202#90FAFF0000000000
(1634075578.703506) vcan0 182#A8000006
(1634075578.703508) vcan0 0D0#00003B00003B0101
(1634075578.704847) vcan0 201#9006010000000000
(1634075578.705062) vcan0 4EC#0065FFFC008B0000
(1634075578.705076) vcan0 0C0#022BDC0000000000
(1634075578.705083) vcan0 202#90FAFF0000000000
(1634075578.706623) vcan0 182#EBCA3502
(1634075578.706710) vcan0 0D3#006200FE0000FAFA
(1634075578.706714) vcan0 4ED#00000017FFA20000
(1634075578.706717) vcan0 201#9006010000000000
(1634075578.706719) vcan0 0D2#00000401000A4E8B
(1634075578.708764) vcan0 202#90FAFF0000000000
(1634075578.708891) vcan0 182#8A050003
(1634075578.708898) vcan0 0D1#00084E000A4E0101
(1634075578.708902) vcan0 0B0#0102640500000000
(1634075578.708905) vcan0 201#9006010000000000
(1634075578.708908) vcan0 0B0#026401057B010096
(1634075578.708912) vcan0 0D0#00003B0000770101
(1634075578.708916) vcan0 4EC#00610001008E0000
(1634075578.710695) vcan0 202#90FAFF0000000000
(1634075578.710822) vcan0 182#F6000004
(1634075578.710828) vcan0 0C0#022BDC0000000000
(1634075578.710832) vcan0 4ED#00000017FFA10000
(1634075578.711130) vcan0 181#A8FFFF06
(1634075578.711139) vcan0 201#9006010000000000
(1634075578.711143) vcan0 0D3#006200FE0000FAFA
(1634075578.711146) vcan0 202#90FAFF0000000000
(1634075578.711150) vcan0 182#A0000005
(1634075578.712560) vcan0 181#EB593602
(1634075578.712648) vcan0 0D2#00000801000A4E8B
(1634075578.712652) vcan0 201#9006010000000000
(1634075578.712655) vcan0 0D1#00084E000A4E0101
(1634075578.714019) vcan0 181#8A060003
(1634075578.714104) vcan0 202#90FAFF0000000000
(1634075578.714108) vcan0 4EC#0062FFFE00880000
(1634075578.714111) vcan0 0D0#0000770000770101
(1634075578.714114) vcan0 201#9006010000000000
(1634075578.715645) vcan0 4ED#00000016FFA10000
(1634075578.715791) vcan0 0C0#022C370000000000
(1634075578.715801) vcan0 181#F6000004
(1634075578.715806) vcan0 202#90FAFF0000000000
(1634075578.715812) vcan0 0D3#006200FE0000FAFA
(1634075578.717839) vcan0 201#9006010000000000
(1634075578.717932) vcan0 0D2#00000801000A4E8B
(1634075578.717942) vcan0 181#A0F50005
(1634075578.717945) vcan0 202#90FAFF0000000000
(1634075578.717947) vcan0 0D1#00084E000A4E0101
(1634075578.717951) vcan0 4EC#005AFFF600880000
(1634075578.717953) vcan0 0AA#0A07A8083306A0
(1634075578.719557) vcan0 201#9006010000000000
(1634075578.719713) vcan0 0D0#0000770000770101
(1634075578.719719) vcan0 4ED#00000016FFA10000
(1634075578.719722) vcan0 202#90FAFF0000000000
(1634075578.719725) vcan0 0C0#022C100000000000
(1634075578.721449) vcan0 201#9006010000000000
(1634075578.721579) vcan0 0D3#006200FE0000FAFA
(1634075578.721585) vcan0 202#90FAFF0000000000
(1634075578.723462) vcan0 0D2#00000801000A4E8B
(1634075578.723481) vcan0 4EC#005EFFF700860000
(1634075578.723485) vcan0 201#9006010000000000
(1634075578.723488) vcan0 0D1#00084E000A4E0101
(1634075578.723491) vcan0 181#4ACB5801
(1634075578.725323) vcan0 202#90FAFF0000000000
(1634075578.725478) vcan0 4ED#00000016FFA20000
(1634075578.725487) vcan0 0D0#0000B30000770101
(1634075578.727601) vcan0 201#9006010000000000
(1634075578.727810) vcan0 0C0#022BE90000000000
(1634075578.727826) vcan0 202#90FAFF0000000000
(1634075578.727834) vcan0 0D3#006200FE0000FAFA
(1634075578.727899) vcan0 201#9006010000000000
(1634075578.727907) vcan0 0D2#00000C01000A4E8B
(1634075578.727913) vcan0 4EC#005DFFF800880000
(1634075578.727920) vcan0 202#90FAFF0000000000
(1634075578.727926) vcan0 0D1#00084E000A4E0101
(1634075578.727933) vcan0 0AA#0506BA004A
(1634075578.727937) vcan0 0AA#014156E6DAAC4A26
(1634075578.733135) vcan0 4ED#00000016FFA10000
(1634075578.733266) vcan0 201#9006010000000000
(1634075578.733270) vcan0 0D0#0000770000B30101
(1634075578.733272) vcan0 202#90FAFF0000000000
(1634075578.733275) vcan0 0C0#022C100000000000
(1634075578.733278) vcan0 201#9006010000000000
(1634075578.733280) vcan0 0D3#006200FE0000FAFA
(1634075578.733283) vcan0 4EC#0061FFF900910000
(1634075578.733285) vcan0 202#90FAFF0000000000
(1634075578.733288) vcan0 0D2#00000C01000A4E8B
(1634075578.733290) vcan0 201#9006010000000000
(1634075578.733293) vcan0 4ED#00000017FFA10000
(1634075578.733295) vcan0 0B0#0102640500000000
(1634075578.733298) vcan0 0D1#00084E000A4E0101
(1634075578.733301) vcan0 202#90FAFF0000000000
(1634075578.733305) vcan0 0D0#0000770000B30101
(1634075578.734693) vcan0 0B0#026401056E0100A4
(1634075578.734817) vcan0 201#9006010000000000
(1634075578.734823) vcan0 0C0#022C2A0000000000
(1634075578.736413) vcan0 202#90FAFF0000000000
(1634075578.736507) vcan0 0D3#006200FE0000FAFA
(1634075578.736513) vcan0 4EC#005DFFF300920000
(1634075578.736518) vcan0 201#9006010000000000
(1634075578.736523) vcan0 0D2#00000801000A4E8B
(1634075578.738401) vcan0 4ED#00000016FFA20000
(1634075578.738493) vcan0 202#90FAFF0000000000
(1634075578.738499) vcan0 0D1#00084E000A4E0101
(1634075578.738504) vcan0 0AA#0506BA004B
(1634075578.738509) vcan0 0AA#0142B986D9FF4A87
(1634075578.738514) vcan0 201#9006010000000000
(1634075578.738518) vcan0 0D0#00003B0000770101
(1634075578.740378) vcan0 202#90FAFF0000000000
(1634075578.740389) vcan0 0C0#022BDC0000000000
(1634075578.740394) vcan0 4EC#0061FFFC00900000
(1634075578.740399) vcan0 201#9006010000000000
(1634075578.740404) vcan0 0D3#006200FE0000FAFA
(1634075578.748435) vcan0 202#90FAFF0000000000
(1634075578.748599) vcan0 4ED#00000017FFA10000
(1634075578.748605) vcan0 0D2#00000801000A4E8B
(1634075578.748608) vcan0 201#9006010000000000
(1634075578.748611) vcan0 0D1#00084E000A4E0101
(1634075578.748614) vcan0 202#90FAFF0000000000
(1634075578.748617) vcan0 0D0#0000770000770101
(1634075578.748621) vcan0 201#9006010000000000
(1634075578.748624) vcan0 0C0#022BCF0000000000
(1634075578.748626) vcan0 4EC#0056000000890000
(1634075578.748629) vcan0 202#90FAFF0000000000
(1634075578.748632) vcan0 0D3#006200FE0000FAFA
(1634075578.748635) vcan0 4ED#00000016FFA10000
(1634075578.748638) vcan0 201#9006010000000000
(1634075578.748641) vcan0 0D2#00000801000A4E8B
(1634075578.748646) vcan0 202#90FAFF0000000000
(1634075578.748650) vcan0 0D1#00084E000A4E0101
(1634075578.748653) vcan0 201#9006010000000000
(1634075578.748657) vcan0 0D0#0000770000770101
(1634075578.751236) vcan0 4EC#0060FFF900840000
(1634075578.751522) vcan0 202#90FAFF0000000000
(1634075578.751613) vcan0 0C0#022C100000000000
(1634075578.751617) vcan0 201#9006010000000000
(1634075578.751620) vcan0 4ED#00000016FFA10000
(1634075578.751622) vcan0 0D3#006200FE0000FAFA
(1634075578.751625) vcan0 202#90FAFF0000000000
(1634075578.751628) vcan0 0D2#00000801000A4E8B
(1634075578.753068) vcan0 201#9006010000000000
(1634075578.753157) vcan0 0D1#00084E000A4E0101
(1634075578.753161) vcan0 202#90FAFF0000000000
(1634075578.754334) vcan0 182#A8020006
(1634075578.754419) vcan0 4EC#005AFFF100820000
(1634075578.754423) vcan0 0D0#0000770000770101
(1634075578.754426) vcan0 201#9006010000000000
(1634075578.754428) vcan0 0C0#022BE90000000000
(1634075578.759291) vcan0 4ED#00000016FFA10000
(1634075578.759312) vcan0 202#90FAFF0000000000
(1634075578.759316) vcan0 182#5FFFFF07
(1634075578.759319) vcan0 0D3#006200FE0000FAFA
(1634075578.759322) vcan0 201#9006010000000000
(1634075578.759325) vcan0 0D2#00000C01000A4E8B
(1634075578.759328) vcan0 202#90FAFF0000000000
(1634075578.759331) vcan0 0AA#0506BB004C
(1634075578.759334) vcan0 0D1#00084E000A4E0101
(1634075578.759337) vcan0 0AA#0142DD909FB99BDE
(1634075578.759339) vcan0 0B0#0102640500000000
(1634075578.759342) vcan0 4EC#005AFFF1008E0000
(1634075578.759345) vcan0 201#9006010000000000
(1634075578.759348) vcan0 0B0#0264010553010089
(1634075578.759351) vcan0 0D0#0000770000B30101
(1634075578.759356) vcan0 4ED#00000017FFA10000
(1634075578.761086) vcan0 202#90FAFF0000000000
(1634075578.761221) vcan0 0C0#022C370000000000
(1634075578.761227) vcan0 181#A8000006
(1634075578.761231) vcan0 201#9006010000000000
(1634075578.761233) vcan0 0D3#006200FE0000FAFA
(1634075578.763112) vcan0 202#90FAFF0000000000
(1634075578.763243) vcan0 0D2#00000C01000A4E8B
(1634075578.763248) vcan0 181#5F060007
(1634075578.763930) vcan0 201#9006010000000000
(1634075578.763941) vcan0 4EC#0058FFF3008B0000
(1634075578.763944) vcan0 0D1#00084E000A4E0101
(1634075578.765701) vcan0 202#90FAFF0000000000
(1634075578.765834) vcan0 0D0#00003B0000B30101
(1634075578.765838) vcan0 4ED#00000017FFA10000
(1634075578.765841) vcan0 201#9006010000000000
(1634075578.765843) vcan0 0C0#022C030000000000
(1634075578.765846) vcan0 202#90FAFF0000000000
(1634075578.765849) vcan0 0D3#006200FE0000FAFA
(1634075578.767444) vcan0 201#9006010000000000
(1634075578.767522) vcan0 182#4A295601
(1634075578.767526) vcan0 0D2#00000801000A4E8B
(1634075578.768845) vcan0 4EC#0052FFEF008B0000
(1634075578.768936) vcan0 202#90FAFF0000000000
(1634075578.768940) vcan0 0D1#00084E000A4E0101
(1634075578.768943) vcan0 4ED#00000017FFA00000
(1634075578.770113) vcan0 201#9006010000000000
(1634075578.770243) vcan0 0D0#00003B0000B30101
(1634075578.770249) vcan0 202#90FAFF0000000000
(1634075578.770252) vcan0 0C0#022BF60000000000
(1634075578.773425) vcan0 201#9006010000000000
(1634075578.773559) vcan0 0D3#006200FE0000FAFA
(1634075578.773569) vcan0 202#90FAFF0000000000
(1634075578.773574) vcan0 4EC#0050FFF500830000
(1634075578.773578) vcan0 0D2#00000C01000A4E8B
(1634075578.773582) vcan0 201#9006010000000000
(1634075578.773586) vcan0 0D1#00084E000A4E0101
(1634075578.775278) vcan0 4ED#00000016FFA10000
(1634075578.775454) vcan0 0FF#9700929900000000
(1634075578.775462) vcan0 202#90FAFF0000000000
(1634075578.775465) vcan0 0D0#0000770000770101
(1634075578.776825) vcan0 201#9006010000000000
(1634075578.776839) vcan0 0C0#022C030000000000
(1634075578.778316) vcan0 202#90FAFF0000000000
(1634075578.778409) vcan0 0D3#006200FE0000FAFA
(1634075578.778413) vcan0 4EC#005AFFF5008A0000
(1634075578.783283) vcan0 201#9006010000000000
(1634075578.783436) vcan0 0D2#00000801000A4E8B
(1634075578.783443) vcan0 4ED#00000016FFA00000
(1634075578.783446) vcan0 202#90FAFF0000000000
(1634075578.783449) vcan0 0D1#00084E000A4E0101
(1634075578.783452) vcan0 0AA#0142E79A9FB99BE1
(1634075578.783455) vcan0 0AA#0506BB004C
(1634075578.783458) vcan0 201#9006010000000000
(1634075578.783461) vcan0 0D0#0000770000770101
(1634075578.783464) vcan0 202#90FAFF0000000000
(1634075578.783467) vcan0 0C0#022BE90000000000
(1634075578.783470) vcan0 201#9006010000000000
(1634075578.784907) vcan0 4EC#0055000000900000
(1634075578.785111) vcan0 0D3#006200FE0000FAFA
(1634075578.791690) vcan0 202#90FAFF0000000000
(1634075578.791832) vcan0 0D2#00000C01000A4E8B
(1634075578.791848) vcan0 4ED#00000017FFA10000
(1634075578.794916) vcan0 201#9006010000000000
(1634075578.795051) vcan0 0B0#0102640500000000
(1634075578.795056) vcan0 0D1#00084E000A4E0101
(1634075578.795328) vcan0 202#90FAFF0000000000
(1634075578.795343) vcan0 0D0#00003B0000B30101
(1634075578.795346) vcan0 0B0#026401056E010089
(1634075578.798956) vcan0 201#9006010000000000
(1634075578.799083) vcan0 0C0#022C030000000000
(1634075578.799089) vcan0 4EC#0052FFFD008F0000
(1634075578.799094) vcan0 202#90FAFF0000000000
(1634075578.799097) vcan0 0D3#006200FE0000FAFA
(1634075578.799101) vcan0 4ED#00000017FFA10000
(1634075578.799374) vcan0 201#9006010000000000
(1634075578.799505) vcan0 0D2#00001101000A4E8B
(1634075578.799512) vcan0 202#90FAFF0000000000
(1634075578.799515) vcan0 0D1#00084E000A4E0101
(1634075578.799518) vcan0 201#9006010000000000
(1634075578.799521) vcan0 0D0#0000770000B30101
(1634075578.799524) vcan0 202#90FAFF0000000000
(1634075578.799527) vcan0 0C0#022BE90000000000
(1634075578.799530) vcan0 4EC#005E0001008E0000
(1634075578.801498) vcan0 201#9006010000000000
(1634075578.801798) vcan0 4ED#00000017FFA00000
(1634075578.801897) vcan0 0D3#006200FE0000FAFA
(1634075578.801902) vcan0 202#90FAFF0000000000
(1634075578.801905) vcan0 0D2#00000C01000A4E8B
(1634075578.801908) vcan0 201#9006010000000000
(1634075578.801911) vcan0 0D1#00084E000A4E0101
(1634075578.801913) vcan0 202#90FAFF0000000000
(1634075578.801916) vcan0 0D0#00003B0000B30101
(1634075578.801918) vcan0 4EC#0057FFFB008A0000
(1634075578.803612) vcan0 201#9006010000000000
(1634075578.803707) vcan0 0C0#022C030000000000
(1634075578.803711) vcan0 4ED#00000016FFA00000
(1634075578.805680) vcan0 202#90FAFF0000000000
(1634075578.805815) vcan0 0D3#006200FE0000FAFA
(1634075578.805821) vcan0 201#9006010000000000
(1634075578.805824) vcan0 0D2#00000C01000A4E8B
(1634075578.805827) vcan0 202#90FAFF0000000000
(1634075578.805830) vcan0 0D1#00084E000A4E0101
(1634075578.805833) vcan0 4EC#0051FFFE008A0000
(1634075578.805836) vcan0 201#9006010000000000
(1634075578.805839) vcan0 0D0#00003B0000770101
(1634075578.807774) vcan0 202#90FAFF0000000000
(1634075578.807903) vcan0 4ED#00000016FFA00000
(1634075578.807909) vcan0 0C0#022BDC0000000000
(1634075578.807912) vcan0 201#9006010000000000
(1634075578.807915) vcan0 0D3#006200FE0000FAFA
(1634075578.815608) vcan0 202#90FAFF0000000000
(1634075578.816038) vcan0 0D2#00000C01000A4E8B
(1634075578.816113) vcan0 201#9006010000000000
(1634075578.816117) vcan0 0D1#00084E000A4E0101
(1634075578.816120) vcan0 4EC#005B000900820000
(1634075578.817002) vcan0 202#90FAFF0000000000
(1634075578.817008) vcan0 182#A8040006
(1634075578.817011) vcan0 0D0#00003B0000B30101
(1634075578.817014) vcan0 4ED#00000016FFA00000
(1634075578.817016) vcan0 201#9006010000000000
(1634075578.817019) vcan0 0C0#022BE90000000000
(1634075578.817022) vcan0 202#90FAFF0000000000
(1634075578.817024) vcan0 182#EBE23502
(1634075578.817027) vcan0 0D3#006200FE0000FAFA
(1634075578.817030) vcan0 201#9006010000000000
(1634075578.817033) vcan0 0D2#00000C01000A4E8B
(1634075578.817036) vcan0 4EC#00690005008B0000
(1634075578.817038) vcan0 182#8AF9FF03
(1634075578.817041) vcan0 202#90FAFF0000000000
(1634075578.817044) vcan0 0B0#0102640500000000
(1634075578.817047) vcan0 0D1#00084E000A4E0101
(1634075578.817051) vcan0 201#9006010000000000
(1634075578.819844) vcan0 4ED#00000016FFA00000
(1634075578.819865) vcan0 0B0#0264010560010089
(1634075578.819868) vcan0 0D0#00003B0000B30101
(1634075578.819871) vcan0 202#90FAFF0000000000
(1634075578.819874) vcan0 182#F6000004
(1634075578.819877) vcan0 0C0#022BDC0000000000
(1634075578.819879) vcan0 181#A8000006
(1634075578.819882) vcan0 201#9006010000000000
(1634075578.819885) vcan0 0D3#006200FE0000FAFA
(1634075578.819888) vcan0 181#EB1B3602
(1634075578.821108) vcan0 202#90FAFF0000000000
(1634075578.821122) vcan0 182#A0000005
(1634075578.821125) vcan0 0D2#00000801000A4E8B
(1634075578.822645) vcan0 4EC#006AFFFB00880000
(1634075578.822670) vcan0 201#9006010000000000
(1634075578.822674) vcan0 0D1#00084E000A4E0101
(1634075578.824565) vcan0 4ED#00000016FFA00000
(1634075578.824587) vcan0 181#8A0C0003
(1634075578.825801) vcan0 202#90FAFF0000000000
(1634075578.825833) vcan0 0D0#0000000000770001
(1634075578.825836) vcan0 201#9006010000000000
(1634075578.827504) vcan0 0C0#022BF60000000000
(1634075578.828740) vcan0 181#F6000004
(1634075578.828758) vcan0 202#90FAFF0000000000
(1634075578.828762) vcan0 0D3#006200FE0000FAFA
(1634075578.828764) vcan0 4EC#005FFFED00840000
(1634075578.828767) vcan0 201#9006010000000000
(1634075578.833423) vcan0 0D2#00000801000A4E8B
(1634075578.833448) vcan0 181#A0F50005
(1634075578.834539) vcan0 202#90FAFF0000000000
(1634075578.835099) vcan0 4ED#00000016FFA10000
(1634075578.835222) vcan0 0D1#00084E000A4E0101
(1634075578.836484) vcan0 0AA#0A07A8083306A0
(1634075578.836569) vcan0 201#9006010000000000
(1634075578.836573) vcan0 0D0#0000000000770001
(1634075578.836576) vcan0 202#90FAFF0000000000
(1634075578.836579) vcan0 0C0#022C100000000000
(1634075578.836581) vcan0 201#9006010000000000
(1634075578.882336) vcan0 0D3#006200FE0000FAFA
(1634075578.882457) vcan0 4EC#0061FFF500860000
(1634075578.882464) vcan0 202#90FAFF0000000000
(1634075578.882468) vcan0 0D2#00000401000A4E8B
(1634075578.882854) vcan0 4ED#00000016FFA10000
(1634075578.882860) vcan0 201#9006010000000000
(1634075578.882862) vcan0 0D1#00084E000A4E0101
(1634075578.882865) vcan0 181#4AC95801
(1634075578.882868) vcan0 202#90FAFF0000000000
(1634075578.882871) vcan0 0D0#00000000003B0001
(1634075578.882873) vcan0 201#9006010000000000
(1634075578.882876) vcan0 0C0#022BDC0000000000
(1634075578.882879) vcan0 4EC#005BFFF700820000
(1634075578.882882) vcan0 202#90FAFF0000000000
(1634075578.882885) vcan0 0D3#006200FE0000FAFA
(1634075578.882889) vcan0 201#9006010000000000
(1634075578.882891) vcan0 4ED#00000016FFA10000
(1634075578.882894) vcan0 0D2#00000000000A4E8B
(1634075578.882897) vcan0 202#90FAFF0000000000
(1634075578.882899) vcan0 0D1#00084E000A4E0101
(1634075578.882902) vcan0 0AA#0506BA004A
(1634075578.882905) vcan0 0AA#0141A04ADAAC4A24
(1634075578.882907) vcan0 201#9006010000000000
(1634075578.882910) vcan0 0D0#0000000000000000
(1634075578.882913) vcan0 202#90FAFF0000000000
(1634075578.882915) vcan0 4EC#0063FFF800860000
(1634075578.882918) vcan0 0C0#022B8E0000000000
(1634075578.882920) vcan0 201#9006010000000000
(1634075578.882923) vcan0 0D3#006200FE0000FAFA
(1634075578.882926) vcan0 4ED#00000016FFA10000
(1634075578.882929) vcan0 202#90FAFF0000000000
(1634075578.882932) vcan0 0D2#00000000000A4E8B
(1634075578.882935) vcan0 201#9006010000000000
(1634075578.882938) vcan0 0B0#0102640500000000
(1634075578.882940) vcan0 0D1#00084E000A4E0101
(1634075578.882943) vcan0 202#90FAFF0000000000
(1634075578.882946) vcan0 0D0#00000000003B0001
(1634075578.882948) vcan0 0B0#0264010560010060
(1634075578.882951) vcan0 4EC#0062000500880000
(1634075578.883296) vcan0 201#9006010000000000
(1634075578.883303) vcan0 0C0#022C030000000000
(1634075578.883306) vcan0 4ED#00000016FFA10000
(1634075578.883309) vcan0 202#90FAFF0000000000
(1634075578.883311) vcan0 0D3#006200FE0000FAFA
(1634075578.883314) vcan0 201#9006010000000000
(1634075578.883317) vcan0 0D2#00000401000A4E8B
(1634075578.883320) vcan0 202#90FAFF0000000000
(1634075578.883323) vcan0 0D1#00084E000A4E0101
(1634075578.883696) vcan0 0AA#0506BA004B
(1634075578.883866) vcan0 0AA#0142AA2CC9ED4B4E
(1634075578.884073) vcan0 201#9006010000000000
(1634075578.884077) vcan0 4EC#0053FFF900890000
(1634075578.884079) vcan0 0D0#00000000003B0001
(1634075578.884082) vcan0 202#90FAFF0000000000
(1634075578.884085) vcan0 0C0#022BDC0000000000
(1634075578.884087) vcan0 4ED#00000016FFA10000
(1634075578.884090) vcan0 201#9006010000000000
(1634075578.884093) vcan0 0D3#006200FE0000FAFA
(1634075578.884095) vcan0 202#90FAFF0000000000
(1634075578.884098) vcan0 0D2#00000000000A4E8B
(1634075578.884101) vcan0 201#9006010000000000
(1634075578.884104) vcan0 0D1#00084E000A4E0101
(1634075578.884107) vcan0 4EC#0058FFFB00880000
(1634075578.884110) vcan0 202#90FAFF0000000000
(1634075578.884113) vcan0 0D0#0000000000000000
(1634075578.884115) vcan0 4ED#00000016FFA10000
(1634075578.884118) vcan0 201#9006010000000000
(1634075578.884121) vcan0 0C0#022BDC0000000000
(1634075578.884123) vcan0 202#90FAFF0000000000
(1634075578.884126) vcan0 0D3#006200FE0000FAFA
(1634075578.884129) vcan0 201#9006010000000000
(1634075578.884137) vcan0 0D2#00000000000A4E8B
(1634075578.884139) vcan0 0AF#000000
(1634075578.884142) vcan0 201#3DD8
(1634075578.884145) vcan0 202#90FAFF0000000000
(1634075578.884273) vcan0 4EC#005AFFFE007E0000
(1634075578.884283) vcan0 0D1#00084E000A4E0101
(1634075578.884286) vcan0 201#9006010000000000
(1634075578.884289) vcan0 0D0#0000000000000000
(1634075578.884291) vcan0 4ED#00000016FFA10000
(1634075578.884294) vcan0 202#90FAFF0000000000
(1634075578.884296) vcan0 0C0#022BDC0000000000
(1634075578.884299) vcan0 201#9006010000000000
(1634075578.884301) vcan0 0D3#006200FE0000FAFA
(1634075578.884304) vcan0 202#90FAFF0000000000
(1634075578.884306) vcan0 0D2#00000000000A4E8B
(1634075578.884309) vcan0 4EC#005DFFF600830000
(1634075578.884311) vcan0 201#9006010000000000
(1634075578.884314) vcan0 0D1#00084E000A4E0101
(1634075578.884316) vcan0 4ED#00000016FFA10000
(1634075578.884319) vcan0 182#A8000006
(1634075578.884322) vcan0 202#90FAFF0000000000
(1634075578.884325) vcan0 0D0#0000000000000000
(1634075578.884328) vcan0 201#9006010000000000
(1634075578.884331) vcan0 0C0#022C100000000000
(1634075578.884334) vcan0 202#90FAFF0000000000
(1634075578.884336) vcan0 182#5FFFFF07
(1634075578.884339) vcan0 0D3#006200FE0000FAFA
(1634075578.884341) vcan0 201#9006010000000000
(1634075578.884344) vcan0 4EC#0060FFF000870000
(1634075578.884346) vcan0 0D2#00000000000A4E8B
(1634075578.884349) vcan0 202#90FAFF0000000000
(1634075578.884351) vcan0 4ED#00000016FFA10000
(1634075578.884354) vcan0 0AA#0142E7C39FC19BEB
(1634075578.884357) vcan0 0AA#0506BA004C
(1634075578.884359) vcan0 201#9006010000000000
(1634075578.884362) vcan0 0B0#0264010560010089
(1634075578.884365) vcan0 0D0#0000000000000000
(1634075578.884368) vcan0 202#90FAFF0000000000
(1634075578.884371) vcan0 0C0#022BF60000000000
(1634075578.884373) vcan0 181#A8FFFF06
(1634075578.884376) vcan0 201#9006010000000000
(1634075578.884378) vcan0 0D3#006200FE0000FAFA
(1634075578.884381) vcan0 4EC#005DFFF800820000
(1634075578.884384) vcan0 202#90FAFF0000000000
(1634075578.885979) vcan0 0D2#00000400000A4E8B
(1634075578.886107) vcan0 181#5F060007
(1634075578.886112) vcan0 4ED#00000016FFA10000
(1634075578.886116) vcan0 201#9006010000000000
(1634075578.886120) vcan0 0D1#00084E000A4E0101
(1634075578.886124) vcan0 202#90FAFF0000000000
(1634075578.886128) vcan0 0D0#00000000003B0000
(1634075578.887488) vcan0 201#9006010000000000
(1634075578.887498) vcan0 0C0#022C2A0000000000
(1634075578.887500) vcan0 202#90FAFF0000000000
(1634075578.888918) vcan0 4EC#005AFFFB007F0000
(1634075578.889002) vcan0 0D3#006200FE0000FAFA
(1634075578.889006) vcan0 182#4A215601
(1634075578.890543) vcan0 201#9006010000000000
(1634075578.890673) vcan0 4ED#00000016FFA10000
(1634075578.890679) vcan0 0D2#00000000000A4E8B
(1634075578.890683) vcan0 202#90FAFF0000000000
(1634075578.890686) vcan0 0D1#00084E000A4E0101
(1634075578.890689) vcan0 201#9006010000000000
(1634075578.892079) vcan0 0D0#0000000000000000
(1634075578.892353) vcan0 202#90FAFF0000000000
(1634075578.892357) vcan0 0C0#022BF60000000000
(1634075578.892360) vcan0 4EC#0055FFEF00810000
(1634075578.893776) vcan0 201#9006010000000000
(1634075578.893867) vcan0 0D3#006200FE0000FAFA
(1634075578.893870) vcan0 4ED#00000016FFA10000
(1634075578.893873) vcan0 202#90FAFF0000000000
(1634075578.893876) vcan0 0D2#00000400000A4E8B
(1634075578.893878) vcan0 201#9006010000000000
(1634075578.893881) vcan0 0D1#00084E000A4E0101
(1634075578.895820) vcan0 202#90FAFF0000000000
(1634075578.895839) vcan0 0D0#00000000003B0000
(1634075578.895843) vcan0 4EC#005AFFEE008D0000
(1634075578.895848) vcan0 201#9006010000000000
(1634075578.895852) vcan0 0C0#022C440000000000
(1634075578.895856) vcan0 202#90FAFF0000000000
(1634075578.895860) vcan0 4ED#00000016FFA10000
(1634075578.897645) vcan0 0D3#006200FE0000FAFA
(1634075578.897774) vcan0 201#9006010000000000
(1634075578.897781) vcan0 0D2#00000800000A4E8B
(1634075578.897784) vcan0 202#90FAFF0000000000
(1634075578.897787) vcan0 0AA#0506BB004B
(1634075578.897791) vcan0 0AA#0142D3D39FB59BE2
(1634075578.899890) vcan0 201#9006010000000000
(1634075578.900271) vcan0 0D0#00000000003B0000
(1634075578.900391) vcan0 4EC#0062FFF9008D0000
(1634075578.900401) vcan0 202#90FAFF0000000000
(1634075578.900404) vcan0 0C0#022C370000000000
(1634075578.900407) vcan0 4ED#00000016FFA10000
(1634075578.900409) vcan0 201#9006010000000000
(1634075578.900412) vcan0 0D3#006200FE0000FAFA
(1634075578.901837) vcan0 202#90FAFF0000000000
(1634075578.901921) vcan0 0D2#00000400000A4E8B
(1634075578.901925) vcan0 201#9006010000000000
(1634075578.901927) vcan0 0B0#0102640500000000
(1634075578.901930) vcan0 0D1#00084E000A4E0101
(1634075578.903232) vcan0 4EC#005A0000008D0000
(1634075578.904868) vcan0 202#90FAFF0000000000
(1634075578.904890) vcan0 0D0#00000000003B0000
(1634075578.904893) vcan0 0B0#02640105600100BF
(1634075578.904896) vcan0 201#9006010000000000
(1634075578.904899) vcan0 4ED#00000017FFA10000
(1634075578.904901) vcan0 0C0#022C1D0000000000
(1634075578.907099) vcan0 202#90FAFF0000000000
(1634075578.907119) vcan0 0D3#006200FE0000FAFA
(1634075578.907122) vcan0 201#9006010000000000
(1634075578.908800) vcan0 0D2#00000800000A4E8B
(1634075578.908823) vcan0 202#90FAFF0000000000
(1634075578.908826) vcan0 0D1#00084E000A4E0101
(1634075578.908829) vcan0 4EC#0058FFFB008E0000
(1634075578.911865) vcan0 201#9006010000000000
(1634075578.911883) vcan0 0D0#00003B0000770000
(1634075578.911886) vcan0 4ED#00000017FFA00000
(1634075578.911889) vcan0 202#90FAFF0000000000
(1634075578.913686) vcan0 0C0#022BDC0000000000
(1634075578.913708) vcan0 201#9006010000000000
(1634075578.913712) vcan0 0D3#006200FE0000FAFA
(1634075578.913715) vcan0 202#90FAFF0000000000
(1634075578.916035) vcan0 0D2#00000800000A4E8B
(1634075578.917385) vcan0 4EC#005EFFF4008B0000
(1634075578.917403) vcan0 201#9006010000000000
(1634075578.918597) vcan0 0D1#00084E000A4E0101
(1634075578.920937) vcan0 202#90FAFF0000000000
(1634075578.920960) vcan0 4ED#00000017FFA00000
(1634075578.920964) vcan0 0D0#00003B0000770000
(1634075578.920966) vcan0 201#9006010000000000
(1634075578.922705) vcan0 0C0#022BE90000000000
(1634075578.922728) vcan0 202#90FAFF0000000000
(1634075578.922731) vcan0 0D3#006200FE0000FAFA
(1634075578.922734) vcan0 201#9006010000000000
(1634075578.922737) vcan0 0D2#00000800000A4E8B
(1634075578.924894) vcan0 4EC#005FFFFE00860000
(1634075578.924928) vcan0 202#90FAFF0000000000
(1634075578.924935) vcan0 0D1#00084E000A4E0101
(1634075578.924938) vcan0 4ED#00000017FFA10000
(1634075578.927036) vcan0 201#9006010000000000
(1634075578.927056) vcan0 0D0#00003B0000770000
(1634075578.927060) vcan0 202#90FAFF0000000000
(1634075578.927063) vcan0 0C0#022B9B0000000000
(1634075578.927065) vcan0 201#9006010000000000
(1634075578.927068) vcan0 0D3#006200FE0000FAFA
(1634075578.927071) vcan0 4EC#0050FFF900850000
(1634075578.928815) vcan0 202#90FAFF0000000000
(1634075578.928838) vcan0 0D2#00000800000A4E8B
(1634075578.930764) vcan0 201#9006010000000000
(1634075578.930787) vcan0 4ED#00000017FFA10000
(1634075578.930790) vcan0 0D1#00084E000A4E0101
(1634075578.930793) vcan0 182#A8000006
(1634075578.930796) vcan0 202#90FAFF0000000000
(1634075578.930798) vcan0 0D0#0000000000770000
(1634075578.930801) vcan0 201#9006010000000000
(1634075578.931916) vcan0 0C0#022C100000000000
(1634075578.933154) vcan0 182#EB743502
(1634075578.933165) vcan0 202#90FAFF0000000000
(1634075578.934576) vcan0 4EC#0052FFF400820000
(1634075578.934686) vcan0 0D3#006200FE0000FAFA
(1634075578.934690) vcan0 201#9006010000000000
(1634075578.935846) vcan0 0D2#00000800000A4E8B
(1634075578.935931) vcan0 4ED#00000017FFA10000
(1634075578.935935) vcan0 182#8AF2FF03
(1634075578.935938) vcan0 202#90FAFF0000000000
(1634075578.937002) vcan0 0D1#00084E000A4E0101
(1634075578.937083) vcan0 0B0#0102630500000000
(1634075578.939085) vcan0 201#9006010000000000
(1634075578.939216) vcan0 0B0#02640105600100A4
(1634075578.939222) vcan0 0D0#0000000000770000
(1634075578.939225) vcan0 182#F6000004
(1634075578.940466) vcan0 202#90FAFF0000000000
(1634075578.940564) vcan0 0C0#022BDC0000000000
(1634075578.940568) vcan0 181#A8040006
(1634075578.940571) vcan0 4EC#005DFFFB00810000
(1634075578.940573) vcan0 201#9006010000000000
(1634075578.941718) vcan0 0D3#006200FE0000FAFA
(1634075578.941804) vcan0 181#EB223602
(1634075578.941808) vcan0 182#A0000005
(1634075578.941810) vcan0 4ED#00000017FFA10000
(1634075578.941814) vcan0 202#90FAFF0000000000
(1634075578.943849) vcan0 0D2#00000400000A4E8B
(1634075578.943997) vcan0 201#9006010000000000
(1634075578.944003) vcan0 0D1#00084E000A4E0101
(1634075578.944006) vcan0 181#8A160003
(1634075578.944009) vcan0 202#90FAFF0000000000
(1634075578.944012) vcan0 0D0#00003B00003B0000
(1634075578.945671) vcan0 201#9006010000000000
(1634075578.945809) vcan0 4EC#0056FFF200870000
(1634075578.945815) vcan0 0C0#022BDC0000000000
(1634075578.945818) vcan0 181#F6000004
(1634075578.945821) vcan0 202#90FAFF0000000000
(1634075578.945824) vcan0 0D3#006200FE0000FAFA
(1634075578.947707) vcan0 4ED#00000017FFA10000
(1634075578.947821) vcan0 201#9006010000000000
(1634075578.947826) vcan0 0D2#00000400000A4E8B
(1634075578.947830) vcan0 181#A0F50005
(1634075578.947833) vcan0 202#90FAFF0000000000
(1634075578.949663) vcan0 0D1#00084E000A4E0101
(1634075578.950021) vcan0 0AA#0A07A8083306A0
(1634075578.950167) vcan0 201#9006010000000000
(1634075578.950172) vcan0 0D0#0000770000770000
(1634075578.950176) vcan0 4EC#004FFFFB008F0000
(1634075578.950179) vcan0 202#90FAFF0000000000
(1634075578.950182) vcan0 0C0#022BF60000000000
(1634075578.951006) vcan0 4ED#00000017FFA10000
(1634075578.951452) vcan0 201#9006010000000000
(1634075578.951472) vcan0 0D3#006200FE0000FAFA
(1634075578.954415) vcan0 202#90FAFF0000000000
(1634075578.954474) vcan0 0D2#00000800000A4E8B
(1634075578.954489) vcan0 201#9006010000000000
(1634075578.954502) vcan0 0D1#00084E000A4E0101
(1634075578.954516) vcan0 181#4AC55801
(1634075578.954529) vcan0 202#90FAFF0000000000
(1634075578.954546) vcan0 4EC#005B0001008F0000
(1634075578.954580) vcan0 0D0#0000770000770000
(1634075578.969813) vcan0 201#9006010000000000
(1634075578.969862) vcan0 0C0#022BF60000000000
(1634075578.969877) vcan0 4ED#00000017FFA10000
(1634075578.969888) vcan0 0FF#9700929900000000
(1634075578.969900) vcan0 202#90FAFF0000000000
(1634075578.969911) vcan0 0D3#006200FE0000FAFA
(1634075578.969921) vcan0 201#9006010000000000
(1634075578.969932) vcan0 0D2#00000400000A4E8B
(1634075578.969943) vcan0 202#90FAFF0000000000
(1634075578.969953) vcan0 0D1#00084E000A4E0101
(1634075578.969964) vcan0 0AA#0141ACB7DAAC4A26
(1634075578.969974) vcan0 0AA#0506BA004A
(1634075578.969984) vcan0 4EC#0058FFFF008E0000
(1634075578.969995) vcan0 201#9006010000000000
(1634075578.970005) vcan0 0D0#00003B00003B0000
(1634075578.970016) vcan0 4ED#00000017FFA10000
(1634075578.970026) vcan0 202#90FAFF0000000000
(1634075578.970037) vcan0 0C0#022BCF0000000000
(1634075578.970047) vcan0 201#9006010000000000
(1634075578.970057) vcan0 0D3#006200FE0000FAFA
(1634075578.970068) vcan0 202#90FAFF0000000000
(1634075578.970078) vcan0 0D2#00000400000A4E8B
(1634075578.970555) vcan0 201#9006010000000000
(1634075578.970588) vcan0 4EC#0064FFFE00880000
(1634075578.970600) vcan0 0B0#0102640500000000
(1634075578.970611) vcan0 0D1#00084E000A4E0101
(1634075578.970621) vcan0 202#90FAFF0000000000
(1634075578.970632) vcan0 0D0#00003B00003B0000
(1634075578.970642) vcan0 0B0#0264010560010096
(1634075578.970652) vcan0 4ED#00000017FFA10000
(1634075578.970663) vcan0 201#9006010000000000
(1634075578.970673) vcan0 0C0#022C030000000000
(1634075578.970683) vcan0 202#90FAFF0000000000
(1634075578.970693) vcan0 0D3#006200FE0000FAFA
(1634075578.970703) vcan0 201#9006010000000000
(1634075578.970714) vcan0 0D2#00000400000A4E8B
(1634075578.970724) vcan0 4EC#006A000200880000
(1634075578.971902) vcan0 202#90FAFF0000000000
(1634075578.971916) vcan0 0D1#00084E000A4E0101
(1634075578.971919) vcan0 0AA#0506BA004B
(1634075578.971922) vcan0 0AA#0142D3C39FB99BE2
(1634075578.973091) vcan0 4ED#00000017FFA10000
(1634075578.973102) vcan0 201#9006010000000000
(1634075578.974674) vcan0 0D0#00003B00003B0000
(1634075578.974695) vcan0 202#90FAFF0000000000
(1634075578.974698) vcan0 0C0#022BCF0000000000
(1634075578.974701) vcan0 201#9006010000000000
(1634075578.979015) vcan0 0D3#006200FE0000FAFA
(1634075578.979036) vcan0 202#90FAFF0000000000
(1634075578.979039) vcan0 4EC#006A000400850000
(1634075578.979042) vcan0 0D2#00000400000A4E8B
(1634075578.979045) vcan0 201#9006010000000000
(1634075578.979048) vcan0 4ED#00000017FFA10000
(1634075578.979050) vcan0 0D1#00084E000A4E0101
(1634075578.979053) vcan0 202#90FAFF0000000000
(1634075578.979081) vcan0 0D0#00003B0000000000
(1634075578.982110) vcan0 201#9006010000000000
(1634075578.982131) vcan0 0C0#022BDC0000000000
(1634075578.982134) vcan0 202#90FAFF0000000000
(1634075578.982137) vcan0 0D3#006200FE0000FAFA
(1634075578.982140) vcan0 4EC#0067FFFF00820000
(1634075578.982143) vcan0 201#9006010000000000
(1634075578.982146) vcan0 0D2#00000000000A4E8B
(1634075578.982148) vcan0 4ED#00000017FFA10000
(1634075578.982151) vcan0 202#90FAFF0000000000
(1634075578.982154) vcan0 0D1#00084E000A4E0101
(1634075578.984900) vcan0 201#9006010000000000
(1634075578.984921) vcan0 0D0#00003B00003B0000
(1634075578.984924) vcan0 202#90FAFF0000000000
(1634075578.984927) vcan0 0C0#022C2A0000000000
(1634075578.984929) vcan0 4EC#0065000000880000
(1634075578.984932) vcan0 201#9006010000000000
(1634075578.984935) vcan0 0D3#006200FE0000FAFA
(1634075578.986088) vcan0 202#90FAFF0000000000
(1634075578.986105) vcan0 4ED#00000017FFA10000
(1634075578.987395) vcan0 0D2#00000400000A4E8B
(1634075578.987425) vcan0 201#9006010000000000
(1634075578.987430) vcan0 0D1#00084E000A4E0101
(1634075578.988642) vcan0 182#A8FEFF06
(1634075578.988726) vcan0 202#90FAFF0000000000
(1634075578.988730) vcan0 0D0#00000000003B0000
(1634075578.988732) vcan0 201#9006010000000000
(1634075578.988735) vcan0 0C0#022C100000000000
(1634075578.988738) vcan0 4EC#0062FFF200940000
(1634075578.988740) vcan0 182#5FFFFF07
(1634075578.990808) vcan0 202#90FAFF0000000000
(1634075578.990937) vcan0 0D3#006200FE0000FAFA
(1634075578.991186) vcan0 4ED#00000017FFA10000
(1634075578.991188) vcan0 201#9006010000000000
(1634075578.991190) vcan0 0D2#00000400000A4E8B
(1634075578.991193) vcan0 202#90FAFF0000000000
(1634075578.993783) vcan0 0AA#0506BB004B
(1634075578.993923) vcan0 0AA#0142D4049FC49BE2
(1634075578.993929) vcan0 201#9006010000000000
(1634075578.993931) vcan0 0B0#0264010553010089
(1634075578.993935) vcan0 0D0#00000000003B0000
(1634075578.993938) vcan0 4EC#0060FFF7008E0000
(1634075578.993941) vcan0 202#90FAFF0000000000
(1634075578.993945) vcan0 0C0#022BE90000000000
(1634075578.993948) vcan0 181#A8FDFF06
(1634075578.993951) vcan0 201#9006010000000000
(1634075578.995109) vcan0 4ED#00000017FFA10000
(1634075578.995198) vcan0 0D3#006200FE0000FAFA
(1634075578.996442) vcan0 202#90FAFF0000000000
(1634075578.996521) vcan0 0D2#00000000000A4E8B
(1634075578.996525) vcan0 181#5F050007
(1634075578.996528) vcan0 201#9006010000000000
(1634075578.996531) vcan0 0D1#00084E000A4E0101
(1634075578.998893) vcan0 202#90FAFF0000000000
(1634075578.999021) vcan0 0D0#00000000003B0000
(1634075578.999323) vcan0 4EC#005BFFF8008A0000
(1634075578.999334) vcan0 201#9006010000000000
(1634075578.999337) vcan0 0C0#022BE90000000000
(1634075578.999340) vcan0 4ED#00000017FFA10000
(1634075578.999760) vcan0 202#90FAFF0000000000
(1634075578.999844) vcan0 0D3#006200FE0000FAFA
(1634075578.999847) vcan0 182#4A275601
(1634075578.999850) vcan0 201#9006010000000000
(1634075578.999853) vcan0 0D2#00000400000A4E8B
(1634075578.999855) vcan0 202#90FAFF0000000000
(1634075578.999858) vcan0 0D1#00084E000A4E0101
(1634075579.001059) vcan0 4EC#0062FFF400890000
(1634075579.002344) vcan0 201#9006010000000000
(1634075579.002441) vcan0 0D0#00000000003B0000
(1634075579.002445) vcan0 202#90FAFF0000000000
(1634075579.003820) vcan0 4ED#00000017FFA10000
(1634075579.003903) vcan0 0C0#022C2A0000000000
(1634075579.006040) vcan0 201#9006010000000000
(1634075579.006223) vcan0 0D3#006200FE0000FAFA
(1634075579.006233) vcan0 202#90FAFF0000000000
(1634075579.006240) vcan0 0D2#00000400000A4E8B
(1634075579.006246) vcan0 201#9006010000000000
(1634075579.007410) vcan0 0D1#00084E000A4E0101
(1634075579.007688) vcan0 4EC#0066FFFB00860000
(1634075579.009014) vcan0 202#90FAFF0000000000
(1634075579.011210) vcan0 0D0#00000000003B0000
(1634075579.011325) vcan0 4ED#00000017FFA10000
(1634075579.011330) vcan0 201#9006010000000000
(1634075579.012998) vcan0 0C0#022C100000000000
(1634075579.013123) vcan0 202#90FAFF0000000000
(1634075579.013128) vcan0 0D3#006200FE0000FAFA
(1634075579.013132) vcan0 201#9006010000000000
(1634075579.015194) vcan0 0D2#00000400000A4E8B
(1634075579.015323) vcan0 4EC#006BFFFA00850000
(1634075579.015329) vcan0 202#90FAFF0000000000
(1634075579.024531) vcan0 0AA#0142DA8D9FB69BE4
(1634075579.024636) vcan0 0AA#0506BB004B
(1634075579.024642) vcan0 0D1#00084E000A4E0101
(1634075579.024647) vcan0 4ED#00000017FFA10000
(1634075579.024651) vcan0 201#9006010000000000
(1634075579.024654) vcan0 0D0#00000000003B0000
(1634075579.024658) vcan0 202#90FAFF0000000000
(1634075579.024662) vcan0 0C0#022C1D0000000000
(1634075579.024666) vcan0 201#9006010000000000
(1634075579.024670) vcan0 0D3#006200FE0000FAFA
(1634075579.024674) vcan0 202#90FAFF0000000000
(1634075579.024678) vcan0 4EC#0062FFFE008E0000
(1634075579.024682) vcan0 0D2#00000400000A4E8B
(1634075579.024686) vcan0 201#9006010000000000
(1634075579.024690) vcan0 0B0#0103640500000000
(1634075579.024695) vcan0 0D1#00084E000A4E0101
(1634075579.024700) vcan0 4ED#00000017FFA10000
(1634075579.024704) vcan0 202#90FAFF0000000000
(1634075579.024708) vcan0 0D0#00000000003B0000
(1634075579.024713) vcan0 0B0#0264010553010096
(1634075579.024718) vcan0 201#9089010000000000
(1634075579.024725) vcan0 0C0#022BDC0000000000
(1634075579.024731) vcan0 202#9077FF0000000000
(1634075579.024735) vcan0 0D3#006200FE0000FAFA
(1634075579.024740) vcan0 4EC#0061FFF800890000
(1634075579.024744) vcan0 201#9089010000000000
(1634075579.024749) vcan0 0D2#00000400000A4E8B
(1634075579.024756) vcan0 4ED#00000017FFA10000
(1634075579.024763) vcan0 202#9077FF0000000000
(1634075579.024767) vcan0 0D1#00084E000A4E0101
(1634075579.024770) vcan0 201#9089010000000000
(1634075579.024773) vcan0 0D0#0000000000000000
(1634075579.024775) vcan0 202#9077FF0000000000
(1634075579.024778) vcan0 0C0#022BDC0000000000
(1634075579.024780) vcan0 201#9089010000000000
(1634075579.024784) vcan0 4EC#0061FFFB008E0000
(1634075579.024787) vcan0 0D3#006200FE0000FAFA
(1634075579.024791) vcan0 202#9077FF0000000000
(1634075579.024795) vcan0 0D2#00000000000A4E8B
(1634075579.024798) vcan0 4ED#00000017FFA10000
(1634075579.024802) vcan0 201#9089010000000000
(1634075579.024806) vcan0 0D1#00084E000A4E0101
(1634075579.024809) vcan0 202#9077FF0000000000
(1634075579.024812) vcan0 0D0#00003B0000000000
(1634075579.024814) vcan0 201#9089010000000000
(1634075579.024817) vcan0 0C0#022BDC0000000000
(1634075579.024820) vcan0 4EC#005EFFFC00930000
(1634075579.024823) vcan0 202#9077FF0000000000
(1634075579.024826) vcan0 0D3#006200FE0000FAFA
(1634075579.024829) vcan0 4ED#00000017FFA10000
(1634075579.024832) vcan0 201#9089010000000000
(1634075579.024834) vcan0 0D2#00000000000A4E8B
(1634075579.024837) vcan0 202#9077FF0000000000
(1634075579.024840) vcan0 0D1#00084E000A4E0101
(1634075579.024842) vcan0 201#9089010000000000
(1634075579.026312) vcan0 0D0#0000000000000000
(1634075579.026884) vcan0 202#9077FF0000000000
(1634075579.027229) vcan0 4EC#0055FFF3008B0000
(1634075579.027238) vcan0 0C0#022BE90000000000
(1634075579.027244) vcan0 201#9089010000000000
(1634075579.027249) vcan0 0D3#006200FE0000FAFA
(1634075579.027254) vcan0 4ED#00000017FFA10000
(1634075579.027258) vcan0 202#9077FF0000000000
(1634075579.027263) vcan0 0D2#00000000000A4E8B
(1634075579.027269) vcan0 201#9089010000000000
(1634075579.027274) vcan0 0D1#00084E000A4E0101
(1634075579.027278) vcan0 182#A8FAFF06
(1634075579.027282) vcan0 202#9077FF0000000000
(1634075579.027286) vcan0 0D0#0000000000000000
(1634075579.027290) vcan0 4EC#00610004008B0000
(1634075579.027298) vcan0 201#9089010000000000
(1634075579.028906) vcan0 0C0#022C100000000000
(1634075579.029019) vcan0 182#EBB23502
(1634075579.029026) vcan0 4ED#00000017FFA00000
(1634075579.029031) vcan0 202#9077FF0000000000
(1634075579.029035) vcan0 0D3#006200FE0000FAFA
(1634075579.029040) vcan0 201#9089010000000000
(1634075579.033220) vcan0 0D2#00000000000A4E8B
(1634075579.033341) vcan0 182#8AE4FF03
(1634075579.033347) vcan0 202#9077FF0000000000
(1634075579.033351) vcan0 0B0#0102630500000000
(1634075579.033355) vcan0 0D1#00084E000A4E0101
(1634075579.033363) vcan0 201#9089010000000000
(1634075579.033368) vcan0 4EC#0064000700870000
(1634075579.033373) vcan0 0B0#026401056E0100A4
(1634075579.033378) vcan0 0D0#0000000000000000
(1634075579.033382) vcan0 182#F6000004
(1634075579.033387) vcan0 202#9077FF0000000000
(1634075579.033392) vcan0 0C0#022BB50000000000
(1634075579.033396) vcan0 4ED#00000016FFA10000
(1634075579.033410) vcan0 181#A8080006
(1634075579.035370) vcan0 201#9006010000000000
(1634075579.035466) vcan0 0D3#006200FE0000FAFA
(1634075579.035597) vcan0 181#EB983602
(1634075579.035609) vcan0 182#A086FF05
(1634075579.035614) vcan0 202#90FAFF0000000000
(1634075579.035618) vcan0 0D2#00000000000A4E8B
(1634075579.035622) vcan0 201#9006010000000000
(1634075579.035626) vcan0 0D1#00084E000A4E0101
(1634075579.035630) vcan0 181#8A120003
(1634075579.035634) vcan0 4EC#00580000008A0000
(1634075579.037245) vcan0 202#90FAFF0000000000
(1634075579.037374) vcan0 0D0#00003B0000000000
(1634075579.037378) vcan0 4ED#00000016FFA10000
(1634075579.037381) vcan0 201#9006010000000000
(1634075579.037384) vcan0 0C0#022C100000000000
(1634075579.037386) vcan0 181#F6000004
(1634075579.037389) vcan0 202#90FAFF0000000000
(1634075579.037392) vcan0 0D3#006200FE0000FAFA
(1634075579.038821) vcan0 201#9006010000000000
(1634075579.038918) vcan0 0D2#00000000000A4E8B
(1634075579.038922) vcan0 181#A0F50005
(1634075579.038925) vcan0 202#90FAFF0000000000
(1634075579.038927) vcan0 4EC#0059000100830000
(1634075579.038930) vcan0 0D1#00084E000A4E0101
(1634075579.038933) vcan0 0AA#0A07A9083306A0
(1634075579.040688) vcan0 201#9006010000000000
(1634075579.040854) vcan0 4ED#00000016FFA10000
(1634075579.040862) vcan0 0D0#00003B0000000000
(1634075579.040867) vcan0 202#90FAFF0000000000
(1634075579.040872) vcan0 0C0#022BDC0000000000
(1634075579.040877) vcan0 201#9006010000000000
(1634075579.040881) vcan0 0D3#006200FE0000FAFA
(1634075579.042639) vcan0 202#90FAFF0000000000
(1634075579.042742) vcan0 0D2#00000000000A4E8B
(1634075579.042746) vcan0 4EC#0052FFF900820000
(1634075579.042748) vcan0 201#9006010000000000
(1634075579.042751) vcan0 0D1#00084E000A4E0101
(1634075579.042754) vcan0 181#4ACA5801
(1634075579.042756) vcan0 4ED#00000016FFA00000
(1634075579.042759) vcan0 202#90FAFF0000000000
(1634075579.042762) vcan0 0D0#0000000000000000
(1634075579.042764) vcan0 201#9006010000000000
(1634075579.044636) vcan0 0C0#022BCF0000000000
(1634075579.044734) vcan0 202#90FAFF0000000000
(1634075579.044738) vcan0 0D3#006200FE0000FAFA
(1634075579.044741) vcan0 4EC#0051FFEC00800000
(1634075579.044743) vcan0 201#9006010000000000
(1634075579.044746) vcan0 0D2#00000000000A4E8B
(1634075579.044749) vcan0 202#90FAFF0000000000
(1634075579.044751) vcan0 4ED#00000016FFA10000
(1634075579.046760) vcan0 0AA#01428749DAAC4A27
(1634075579.047111) vcan0 0AA#0506BB004B
(1634075579.047119) vcan0 201#9006010000000000
(1634075579.047124) vcan0 0D0#00003B0000000000
(1634075579.047129) vcan0 202#90FAFF0000000000
(1634075579.047134) vcan0 0C0#022C100000000000
(1634075579.047139) vcan0 201#9006010000000000
(1634075579.047144) vcan0 0D3#006200FE0000FAFA
(1634075579.047149) vcan0 4EC#005DFFF600880000
(1634075579.047153) vcan0 202#90FAFF0000000000
(1634075579.048331) vcan0 0D2#00000000000A4E8B
(1634075579.048442) vcan0 4ED#00000016FFA10000
(1634075579.048448) vcan0 201#9006010000000000
(1634075579.048453) vcan0 0B0#0102640500000000
(1634075579.049675) vcan0 0D1#00084E000A4E0101
(1634075579.049773) vcan0 202#90FAFF0000000000
(1634075579.049776) vcan0 0D0#0000000000000000
(1634075579.049779) vcan0 0B0#0264010553010096
(1634075579.049781) vcan0 201#9006010000000000
(1634075579.051227) vcan0 0C0#022C100000000000
(1634075579.051319) vcan0 4EC#0060FFF500850000
(1634075579.051323) vcan0 202#90FAFF0000000000
(1634075579.051325) vcan0 0D3#006200FE0000FAFA
(1634075579.051342) vcan0 201#9006010000000000
(1634075579.051345) vcan0 4ED#00000017FFA10000
(1634075579.051348) vcan0 0D2#00000000000A4E8B
(1634075579.052620) vcan0 202#90FAFF0000000000
(1634075579.052718) vcan0 0D1#00084E000A4E0101
(1634075579.052722) vcan0 0AA#0142EE02D9FF4B00
(1634075579.052725) vcan0 0AA#0506BB004C
(1634075579.052728) vcan0 201#9006010000000000
(1634075579.052730) vcan0 0D0#00003B0000000000
(1634075579.052733) vcan0 202#90FAFF0000000000
(1634075579.052735) vcan0 0C0#022BE90000000000
(1634075579.055052) vcan0 4EC#0061FFFE00860000
(1634075579.055070) vcan0 201#9006010000000000
(1634075579.055073) vcan0 0D3#006200FE0000FAFA
(1634075579.055076) vcan0 4ED#00000017FFA10000
(1634075579.055079) vcan0 202#90FAFF0000000000
(1634075579.055089) vcan0 0D2#00000400000A4E8B
(1634075579.055092) vcan0 201#9006010000000000
(1634075579.055094) vcan0 0D1#00084E000A4E0101
(1634075579.055097) vcan0 202#90FAFF0000000000
(1634075579.055100) vcan0 0D0#00003B00003B0000
(1634075579.055102) vcan0 4EC#005CFFFB00890000
(1634075579.056623) vcan0 201#9006010000000000
(1634075579.056714) vcan0 0C0#022BF60000000000
(1634075579.056718) vcan0 202#90FAFF0000000000
(1634075579.056721) vcan0 4ED#00000017FFA10000
(1634075579.056724) vcan0 0D3#006200FE0000FAFA
(1634075579.056726) vcan0 201#9006010000000000
(1634075579.056729) vcan0 0D2#00000400000A4E8B
(1634075579.056732) vcan0 202#90FAFF0000000000
(1634075579.056735) vcan0 0D1#00084E000A4E0101
(1634075579.056738) vcan0 202#3DD8
(1634075579.058330) vcan0 201#9006010000000000
(1634075579.058468) vcan0 0D0#00000000003B0000
(1634075579.058472) vcan0 4EC#0058FFF200850000
(1634075579.058475) vcan0 202#90FAFF0000000000
(1634075579.058478) vcan0 0C0#022C100000000000
(1634075579.058480) vcan0 4ED#00000017FFA00000
(1634075579.058483) vcan0 201#9006010000000000
(1634075579.060310) vcan0 0D3#006200FE0000FAFA
(1634075579.060468) vcan0 202#90FAFF0000000000
(1634075579.060474) vcan0 0D2#00000400000A4E8B
(1634075579.060477) vcan0 201#9006010000000000
(1634075579.060480) vcan0 0D1#00084E000A4E0101
(1634075579.060483) vcan0 182#A8050006
(1634075579.060486) vcan0 4EC#0055FFF800850000
(1634075579.060489) vcan0 202#90FAFF0000000000
(1634075579.060493) vcan0 0D0#00000000003B0000
(1634075579.060495) vcan0 4ED#00000017FFA10000
(1634075579.062266) vcan0 201#9006010000000000
(1634075579.062439) vcan0 0C0#022C2A0000000000
(1634075579.062445) vcan0 182#5F000007
(1634075579.062449) vcan0 202#90FAFF0000000000
(1634075579.062452) vcan0 0D3#006200FE0000FAFA
(1634075579.062455) vcan0 201#9006010000000000
(1634075579.062458) vcan0 0D2#00000000000A4E8B
(1634075579.062461) vcan0 202#90FAFF0000000000
(1634075579.062463) vcan0 0AA#0506BB004C
(1634075579.064290) vcan0 0AA#0142DD799FBA9BE1
(1634075579.064448) vcan0 0B0#0102640500000000
(1634075579.064454) vcan0 4EC#0051FFFE008C0000
(1634075579.064458) vcan0 201#9006010000000000
(1634075579.064460) vcan0 0B0#0264010545010089
(1634075579.064464) vcan0 4ED#00000017FFA10000
(1634075579.064467) vcan0 0D0#00003B0000000000
(1634075579.064470) vcan0 202#90FAFF0000000000
(1634075579.064473) vcan0 0C0#022C030000000000
(1634075579.064477) vcan0 181#A8FFFF06
(1634075579.064480) vcan0 201#9006010000000000
(1634075579.064484) vcan0 0D3#006200FE0000FAFA
(1634075579.065619) vcan0 202#90FAFF0000000000
(1634075579.065749) vcan0 0D2#00000400000A4E8B
(1634075579.065752) vcan0 181#5F060007
(1634075579.065755) vcan0 4EC#0050FFFD008B0000
(1634075579.065758) vcan0 201#9006010000000000
(1634075579.065760) vcan0 0D1#00084E000A4E0101
(1634075579.065763) vcan0 4ED#00000017FFA10000
(1634075579.067023) vcan0 202#90FAFF0000000000
(1634075579.067137) vcan0 0D0#00003B00003B0000
(1634075579.067140) vcan0 201#9006010000000000
(1634075579.067143) vcan0 0C0#022C030000000000
(1634075579.067146) vcan0 202#90FAFF0000000000
(1634075579.067148) vcan0 0D3#006200FE0000FAFA
(1634075579.068525) vcan0 182#4A265601
(1634075579.068540) vcan0 201#9006010000000000
(1634075579.068544) vcan0 4EC#005AFFFA008B0000
(1634075579.068547) vcan0 0D2#00000400000A4E8B
(1634075579.068549) vcan0 202#90FAFF0000000000
(1634075579.068552) vcan0 0D1#00084E000A4E0101
(1634075579.068555) vcan0 4ED#00000017FFA10000
(1634075579.068558) vcan0 201#9006010000000000
(1634075579.068560) vcan0 0D0#00003B0000770000
(1634075579.069732) vcan0 202#90FAFF0000000000
(1634075579.069744) vcan0 0C0#022BDC0000000000
(1634075579.071440) vcan0 201#9006010000000000
(1634075579.071464) vcan0 0D3#006200FE0000FAFA
(1634075579.071468) vcan0 4EC#006BFFF500880000
(1634075579.071471) vcan0 202#90FAFF0000000000
(1634075579.071474) vcan0 0D2#00000800000A4E8B
(1634075579.073002) vcan0 4ED#00000017FFA10000
(1634075579.073162) vcan0 201#9006010000000000
(1634075579.073168) vcan0 0D1#00084E000A4E0101
(1634075579.073172) vcan0 202#90FAFF0000000000
(1634075579.075273) vcan0 0D0#00003B0000770000
(1634075579.075532) vcan0 201#9006010000000000
(1634075579.075545) vcan0 0C0#022C030000000000
(1634075579.075601) vcan0 202#90FAFF0000000000
(1634075579.075621) vcan0 4EC#005AFFFA007F0000
(1634075579.075628) vcan0 0D3#006200FE0000FAFA
(1634075579.076893) vcan0 201#9006010000000000
(1634075579.077045) vcan0 4ED#00000017FFA10000
(1634075579.077049) vcan0 0D2#00000800000A4E8B
(1634075579.077052) vcan0 0FF#9700929900000000
(1634075579.077055) vcan0 202#90FAFF0000000000
(1634075579.079170) vcan0 0AA#0142DD959FB39BE4
(1634075579.079360) vcan0 0AA#0506BA004B
(1634075579.079366) vcan0 0D1#00084E000A4E0101
(1634075579.079369) vcan0 201#9006010000000000
(1634075579.079372) vcan0 0D0#00003B0000770000
(1634075579.079375) vcan0 202#90FAFF0000000000
(1634075579.079378) vcan0 0C0#022C100000000000
(1634075579.080878) vcan0 4EC#0052FFF000800000
(1634075579.081041) vcan0 201#9006010000000000
(1634075579.081048) vcan0 0D3#006200FE0000FAFA
(1634075579.081051) vcan0 4ED#00000017FFA10000
(1634075579.081054) vcan0 202#90FAFF0000000000
(1634075579.082771) vcan0 0D2#00000400000A4E8B
(1634075579.083197) vcan0 201#9006010000000000
(1634075579.083304) vcan0 0B0#0102640500000000
(1634075579.083310) vcan0 0D1#00084E000A4E0101
(1634075579.083313) vcan0 202#90FAFF0000000000
(1634075579.083315) vcan0 0D0#00003B00003B0000
(1634075579.084689) vcan0 0B0#026401057B010053
(1634075579.084705) vcan0 201#9006010000000000
(1634075579.084709) vcan0 4EC#005EFFF1007F0000
(1634075579.084712) vcan0 0C0#022C100000000000
(1634075579.086411) vcan0 202#90FAFF0000000000
(1634075579.086532) vcan0 4ED#00000017FFA10000
(1634075579.086549) vcan0 0D3#006200FE0000FAFA
(1634075579.086552) vcan0 201#9006010000000000
(1634075579.086554) vcan0 0D2#00000400000A4E8B
(1634075579.089554) vcan0 202#90FAFF0000000000
(1634075579.089720) vcan0 0D1#00084E000A4E0101
(1634075579.089726) vcan0 201#9006010000000000
(1634075579.089729) vcan0 0D0#00003B00003B0000
(1634075579.089732) vcan0 4EC#00610000007F0000
(1634075579.089735) vcan0 202#90FAFF0000000000
(1634075579.089738) vcan0 0C0#022C2A0000000000
(1634075579.089741) vcan0 4ED#00000017FFA10000
(1634075579.091615) vcan0 201#9006010000000000
(1634075579.091704) vcan0 0D3#006200FE0000FAFA
(1634075579.091708) vcan0 202#90FAFF0000000000
(1634075579.091711) vcan0 0D2#00000400000A4E8B
(1634075579.092960) vcan0 201#9006010000000000
(1634075579.093078) vcan0 0D1#00084E000A4E0101
(1634075579.099532) vcan0 202#90FAFF0000000000
(1634075579.099555) vcan0 4EC#005E000000820000
(1634075579.099560) vcan0 0D0#0000770000770000
(1634075579.099564) vcan0 201#9006010000000000
(1634075579.099568) vcan0 4ED#00000017FFA10000
(1634075579.099571) vcan0 0C0#022C030000000000
(1634075579.099574) vcan0 202#90FAFF0000000000
(1634075579.099578) vcan0 0D3#006200FE0000FAFA
(1634075579.099581) vcan0 201#9006010000000000
(1634075579.101040) vcan0 0D2#00000800000A4E8B
(1634075579.101058) vcan0 202#90FAFF0000000000
(1634075579.101061) vcan0 0D1#00084E000A4E0101
(1634075579.101064) vcan0 4EC#0063000600880000
(1634075579.101066) vcan0 201#9006010000000000
(1634075579.101069) vcan0 0D0#00003B0000770000
(1634075579.101071) vcan0 4ED#00000016FFA00000
(1634075579.101074) vcan0 202#90FAFF0000000000
(1634075579.101076) vcan0 0C0#022C030000000000
(1634075579.101079) vcan0 201#9006010000000000
(1634075579.102171) vcan0 0D3#006200FE0000FAFA
(1634075579.102187) vcan0 202#90FAFF0000000000
(1634075579.102204) vcan0 0D2#00000400000A4E8B
(1634075579.102206) vcan0 4EC#005E000500890000
(1634075579.103534) vcan0 201#9006010000000000
(1634075579.103559) vcan0 0D1#00084E000A4E0101
(1634075579.103563) vcan0 182#A8FDFF06
(1634075579.103566) vcan0 202#90FAFF0000000000
(1634075579.103569) vcan0 4ED#00000017FFA10000
(1634075579.103572) vcan0 0D0#00007700003B0000
(1634075579.105328) vcan0 201#9006010000000000
(1634075579.105350) vcan0 0C0#022BE90000000000
(1634075579.105353) vcan0 182#EBCA3502
(1634075579.105356) vcan0 202#90FAFF0000000000
(1634075579.105358) vcan0 0D3#006200FE0000FAFA
(1634075579.107610) vcan0 201#9006010000000000
(1634075579.107637) vcan0 0D2#00000400000A4E8B
(1634075579.107641) vcan0 182#8AF1FF03
(1634075579.107644) vcan0 4EC#005C000200870000
(1634075579.107647) vcan0 202#90FAFF0000000000
(1634075579.107650) vcan0 0D1#00084E000A4E0101
(1634075579.107653) vcan0 0B0#0102640500000000
(1634075579.107666) vcan0 4ED#00000017FFA10000
(1634075579.109140) vcan0 201#9006010000000000
(1634075579.109162) vcan0 0B0#0264010545010096
(1634075579.109165) vcan0 182#F6000004
(1634075579.109168) vcan0 0D0#00007700003B0000
(1634075579.109171) vcan0 202#90FAFF0000000000
(1634075579.111184) vcan0 0C0#022BE90000000000
(1634075579.111204) vcan0 181#A8000006
(1634075579.111207) vcan0 201#9006010000000000
(1634075579.111210) vcan0 0D3#006200FE0000FAFA
(1634075579.111213) vcan0 181#EB4A3602
(1634075579.111215) vcan0 182#A0000005
(1634075579.111217) vcan0 4EC#00670003008E0000
(1634075579.111220) vcan0 202#90FAFF0000000000
(1634075579.112388) vcan0 0D2#00000000000A4E8B
(1634075579.112406) vcan0 201#9006010000000000
(1634075579.112409) vcan0 0D1#00084E000A4E0101
(1634075579.112412) vcan0 4ED#00000017FFA10000
(1634075579.114069) vcan0 181#8A0E0003
(1634075579.114090) vcan0 202#90FAFF0000000000
(1634075579.114094) vcan0 0D0#0000770000000000
(1634075579.114097) vcan0 201#9006010000000000
(1634075579.115924) vcan0 0C0#022BDC0000000000
(1634075579.116023) vcan0 181#F6000004
(1634075579.116027) vcan0 202#90FAFF0000000000
(1634075579.116031) vcan0 0D3#006200FE0000FAFA
(1634075579.116035) vcan0 4EC#0062000500840000
(1634075579.116042) vcan0 201#9006010000000000
(1634075579.117540) vcan0 0D2#00000000000A4E8B
(1634075579.117626) vcan0 181#A0F50005
(1634075579.117630) vcan0 4ED#00000017FFA10000
(1634075579.117633) vcan0 202#90FAFF0000000000
(1634075579.117636) vcan0 0D1#00084E000A4E0101
(1634075579.117639) vcan0 0AA#0A07A9083306A0
(1634075579.119272) vcan0 201#9006010000000000
(1634075579.119408) vcan0 0D0#00003B0000000000
(1634075579.119414) vcan0 202#90FAFF0000000000
(1634075579.119418) vcan0 0C0#022BE90000000000
(1634075579.120690) vcan0 4EC#005D000100880000
(1634075579.120874) vcan0 201#9006010000000000
(1634075579.120883) vcan0 0D3#006200FE0000FAFA
(1634075579.122660) vcan0 202#90FAFF0000000000
(1634075579.122789) vcan0 4ED#00000017FFA10000
(1634075579.122795) vcan0 0D2#00000000000A4E8B
(1634075579.122798) vcan0 201#9006010000000000
(1634075579.122801) vcan0 0D1#00084E000A4E0101
(1634075579.122804) vcan0 181#4AC75801
(1634075579.123972) vcan0 202#90FAFF0000000000
(1634075579.124054) vcan0 0D0#00003B0000000000
(1634075579.125375) vcan0 201#9006010000000000
(1634075579.125464) vcan0 4EC#005EFFFF008B0000
(1634075579.125468) vcan0 0C0#022BDC0000000000
(1634075579.127563) vcan0 202#90FAFF0000000000
(1634075579.127699) vcan0 0D3#006200FE0000FAFA
(1634075579.127705) vcan0 4ED#00000017FFA10000
(1634075579.127708) vcan0 201#9006010000000000
(1634075579.127711) vcan0 0D2#00000000000A4E8B
(1634075579.127715) vcan0 202#90FAFF0000000000
(1634075579.129493) vcan0 0AA#0141DB88DAAD4A27
(1634075579.129621) vcan0 0AA#0506BB004A
(1634075579.129627) vcan0 0D1#00084E000A4E0101
(1634075579.129630) vcan0 201#9006010000000000
(1634075579.129634) vcan0 0D0#00003B0000000000
(1634075579.129637) vcan0 4EC#0062FFF8008B0000
(1634075579.129640) vcan0 202#90FAFF0000000000
(1634075579.129644) vcan0 0C0#022BE90000000000
(1634075579.131581) vcan0 4ED#00000017FFA10000
(1634075579.131601) vcan0 201#9006010000000000
(1634075579.131605) vcan0 0D3#006200FE0000FAFA
(1634075579.131608) vcan0 202#90FAFF0000000000
(1634075579.131612) vcan0 0D2#00000000000A4E8B
(1634075579.133362) vcan0 201#9006010000000000
(1634075579.133505) vcan0 0B0#0102640500000000
(1634075579.133511) vcan0 0D1#00084E000A4E0101
(1634075579.134775) vcan0 202#90FAFF0000000000
(1634075579.134790) vcan0 4EC#0052FFF800870000
(1634075579.134793) vcan0 0D0#0000000000000000
(1634075579.134796) vcan0 0B0#0264010537010096
(1634075579.134799) vcan0 201#9006010000000000
(1634075579.134802) vcan0 0C0#022C100000000000
(1634075579.136155) vcan0 4ED#00000017FFA00000
(1634075579.136251) vcan0 202#90FAFF0000000000
(1634075579.136255) vcan0 0D3#006200FE0000FAFA
(1634075579.136257) vcan0 201#9006010000000000
(1634075579.137837) vcan0 0D2#00000000000A4E8B
(1634075579.137983) vcan0 202#90FAFF0000000000
(1634075579.137989) vcan0 0AA#0506BB004C
(1634075579.137993) vcan0 0AA#0142DDCC9FBB9BE1
(1634075579.137996) vcan0 4EC#0053FFFD008C0000
(1634075579.138000) vcan0 201#9006010000000000
(1634075579.140155) vcan0 0D0#0000000000000000
(1634075579.140185) vcan0 4ED#00000017FFA10000
(1634075579.140189) vcan0 202#90FAFF0000000000
(1634075579.140192) vcan0 0C0#022BF60000000000
(1634075579.140195) vcan0 201#9006010000000000
(1634075579.141702) vcan0 0D3#006200FE0000FAFA
(1634075579.141833) vcan0 202#90FAFF0000000000
(1634075579.141839) vcan0 0D2#00000000000A4E8B
(1634075579.143734) vcan0 201#9006010000000000
(1634075579.143865) vcan0 4EC#00580003008A0000
(1634075579.143870) vcan0 0D1#00084E000A4E0101
(1634075579.143874) vcan0 202#90FAFF0000000000
(1634075579.143877) vcan0 0D0#0000000000000000
(1634075579.143881) vcan0 4ED#00000017FFA10000
(1634075579.145601) vcan0 201#9006010000000000
(1634075579.145758) vcan0 0C0#022C440000000000
(1634075579.145766) vcan0 202#90FAFF0000000000
(1634075579.145771) vcan0 0D3#006200FE0000FAFA
(1634075579.147511) vcan0 201#9006010000000000
(1634075579.147612) vcan0 0D2#00000000000A4E8B
(1634075579.147616) vcan0 4EC#0057000800820000
(1634075579.147618) vcan0 202#90FAFF0000000000
(1634075579.147621) vcan0 0D1#00084E000A4E0101
(1634075579.149680) vcan0 4ED#00000017FFA10000
(1634075579.149855) vcan0 201#9006010000000000
(1634075579.149860) vcan0 0D0#0000000000000000
(1634075579.149863) vcan0 202#90FAFF0000000000
(1634075579.149866) vcan0 0C0#022BE90000000000
(1634075579.151437) vcan0 201#9006010000000000
(1634075579.151537) vcan0 0D3#006200FE0000FAFA
(1634075579.151541) vcan0 202#90FAFF0000000000
(1634075579.151544) vcan0 4EC#0055FFFA00820000
(1634075579.151546) vcan0 0D2#00000400000A4E8B
(1634075579.153419) vcan0 201#9006010000000000
(1634075579.153558) vcan0 0D1#00084E000A4E0101
(1634075579.153564) vcan0 182#A8000006
(1634075579.153568) vcan0 4ED#00000017FFA10000
(1634075579.153571) vcan0 202#90FAFF0000000000
(1634075579.153574) vcan0 0D0#00000000003B0000
(1634075579.155478) vcan0 201#9006010000000000
(1634075579.155644) vcan0 0C0#022BDC0000000000
(1634075579.155653) vcan0 182#5F000007
(1634075579.155658) vcan0 202#90FAFF0000000000
(1634075579.155664) vcan0 0D3#006200FE0000FAFA
(1634075579.155669) vcan0 4EC#0055FFF200800000
(1634075579.157149) vcan0 201#9006010000000000
(1634075579.157238) vcan0 0D2#00000000000A4E8B
(1634075579.157242) vcan0 4ED#00000017FFA10000
(1634075579.157245) vcan0 202#90FAFF0000000000
(1634075579.159409) vcan0 0AA#0142DDA79FBC9BE3
(1634075579.159430) vcan0 0AA#0506BA004B
(1634075579.159435) vcan0 0D1#00084E000A4E0101
(1634075579.159438) vcan0 0B0#0102630500000000
(1634075579.159441) vcan0 201#9006010000000000
(1634075579.159444) vcan0 0B0#0264010553010096
(1634075579.159447) vcan0 0D0#0000000000000000
(1634075579.159450) vcan0 202#90FAFF0000000000
(1634075579.159453) vcan0 181#A8FEFF06
(1634075579.159456) vcan0 0C0#022BCF0000000000
(1634075579.161272) vcan0 201#9006010000000000
(1634075579.161400) vcan0 4EC#0051FFF700870000
(1634075579.161409) vcan0 0D3#006200FE0000FAFA
(1634075579.161416) vcan0 202#90FAFF0000000000
(1634075579.161975) vcan0 4ED#00000017FFA10000
(1634075579.161980) vcan0 0D2#00000000000A4E8B
(1634075579.161983) vcan0 181#5F060007
(1634075579.163218) vcan0 201#9006010000000000
(1634075579.163357) vcan0 0D1#00084E000A4E0101
(1634075579.163363) vcan0 202#90FAFF0000000000
(1634075579.163366) vcan0 0D0#0000000000000000
(1634075579.165088) vcan0 201#9006010000000000
(1634075579.165223) vcan0 0C0#022BE90000000000
(1634075579.165229) vcan0 4EC#0057FFFA00940000
(1634075579.165233) vcan0 202#90FAFF0000000000
(1634075579.166433) vcan0 0D3#006200FE0000FAFA
(1634075579.166518) vcan0 182#4A2A5601
(1634075579.166522) vcan0 4ED#00000017FFA10000
(1634075579.166525) vcan0 201#9006010000000000
(1634075579.166528) vcan0 0D2#00000000000A4E8B
(1634075579.167908) vcan0 202#90FAFF0000000000
(1634075579.167995) vcan0 0D1#00084E000A4E0101
(1634075579.167999) vcan0 201#9006010000000000
(1634075579.169118) vcan0 0D0#0000000000000000
(1634075579.169255) vcan0 202#90FAFF0000000000
(1634075579.171175) vcan0 4EC#0060FFEE00910000
(1634075579.171319) vcan0 0C0#022BDC0000000000
(1634075579.171325) vcan0 201#9006010000000000
(1634075579.171329) vcan0 4ED#00000017FFA10000
(1634075579.171332) vcan0 0D3#006200FE0000FAFA
(1634075579.171335) vcan0 202#90FAFF0000000000
(1634075579.171339) vcan0 0D2#00000000000A4E8B
(1634075579.172993) vcan0 201#9006010000000000
(1634075579.173126) vcan0 0D1#00084E000A4E0101
(1634075579.173133) vcan0 202#90FAFF0000000000
(1634075579.174965) vcan0 0D0#0000000000000000
(1634075579.175144) vcan0 4EC#006DFFF300820000
(1634075579.175151) vcan0 201#9006010000000000
(1634075579.175155) vcan0 0C0#022BF60000000000
(1634075579.175158) vcan0 4ED#00000017FFA10000
(1634075579.175481) vcan0 202#90FAFF0000000000
(1634075579.175500) vcan0 0D3#006200FE0000FAFA
(1634075579.176841) vcan0 201#9006010000000000
(1634075579.176971) vcan0 0D2#00000000000A4E8B
(1634075579.176977) vcan0 0AA#0506BA004B
(1634075579.178857) vcan0 202#90FAFF0000000000
(1634075579.178984) vcan0 0AA#0142D3C29FB39BE3
(1634075579.179253) vcan0 0D1#00084E000A4E0101
(1634075579.179396) vcan0 4EC#0050FFFA00820000
(1634075579.179401) vcan0 201#9006010000000000
(1634075579.179405) vcan0 0D0#00000000003B0001
(1634075579.179407) vcan0 202#90FAFF0000000000
(1634075579.179410) vcan0 4ED#00000017FFA10000
(1634075579.180812) vcan0 0C0#022BDC0000000000
(1634075579.180936) vcan0 201#9006010000000000
(1634075579.180942) vcan0 0D3#006200FE0000FAFA
(1634075579.182751) vcan0 202#90FAFF0000000000
(1634075579.182890) vcan0 0D2#00000401000A4E8B
(1634075579.183154) vcan0 201#9006010000000000
(1634075579.183308) vcan0 0B0#0102640500000000
(1634075579.183317) vcan0 0D1#00084E000A4E0101
(1634075579.183320) vcan0 4EC#005DFFFE007F0000
(1634075579.183324) vcan0 202#90FAFF0000000000
(1634075579.183327) vcan0 0D0#00000000003B0001
(1634075579.184638) vcan0 0B0#026401056E010089
(1634075579.184697) vcan0 4ED#00000017FFA10000
(1634075579.185081) vcan0 201#9006010000000000
(1634075579.185103) vcan0 0C0#022BC20000000000
(1634075579.185115) vcan0 202#90FAFF0000000000
(1634075579.186485) vcan0 0D3#006200FE0000FAFA
(1634075579.186517) vcan0 201#9006010000000000
(1634075579.186530) vcan0 0D2#00000000000A4E8B
(1634075579.196497) vcan0 4EC#0061FFF800860000
(1634075579.196542) vcan0 202#90FAFF0000000000
(1634075579.198255) vcan0 0D1#00084E000A4E0101
(1634075579.198288) vcan0 201#9006010000000000
(1634075579.198300) vcan0 4ED#00000017FFA10000
(1634075579.198311) vcan0 0D0#0000000000000000
(1634075579.198320) vcan0 202#90FAFF0000000000
(1634075579.198330) vcan0 0C0#022C100000000000
(1634075579.198340) vcan0 201#9006010000000000
(1634075579.198350) vcan0 0D3#006200FE0000FAFA
(1634075579.198359) vcan0 202#90FAFF0000000000
(1634075579.198369) vcan0 0D2#00000000000A4E8B
(1634075579.198379) vcan0 4EC#0061FFF800880000
(1634075579.198388) vcan0 201#9006010000000000
(1634075579.198398) vcan0 0D1#00084E000A4E0101
(1634075579.198408) vcan0 4ED#00000017FFA10000
(1634075579.198417) vcan0 202#90FAFF0000000000
(1634075579.198427) vcan0 0D0#0000000000000000
(1634075579.198437) vcan0 201#9006010000000000
(1634075579.198446) vcan0 0C0#022C100000000000
(1634075579.198456) vcan0 202#90FAFF0000000000
(1634075579.198466) vcan0 0D3#006200FE0000FAFA
(1634075579.198475) vcan0 4EC#0064FFFB008B0000
(1634075579.198485) vcan0 201#9006010000000000
(1634075579.198495) vcan0 0D2#00000000000A4E8B
(1634075579.198505) vcan0 202#90FAFF0000000000
(1634075579.198514) vcan0 4ED#00000016FFA00000
(1634075579.198524) vcan0 0D1#00084E000A4E0101
(1634075579.198534) vcan0 201#9006010000000000
(1634075579.198543) vcan0 0D0#0000000000000000
(1634075579.200498) vcan0 202#90FAFF0000000000
(1634075579.200634) vcan0 0C0#022C100000000000
(1634075579.201574) vcan0 201#9006010000000000
(1634075579.201988) vcan0 4EC#0062FFFE00880000
(1634075579.202010) vcan0 0D3#006200FE0000FAFA
(1634075579.202021) vcan0 202#90FAFF0000000000
(1634075579.202031) vcan0 0D2#00000000000A4E8B
